#
#"Frequency / GHz"	"Z [Re]"	"Z [Im]"
#-----------------------------------
0.0000000000000	0.0045228555121526	-9.3334667108490e-12
0.0051195723057179	0.0057828266767603	0.030716389263026
0.010239144611436	0.0091528615451036	0.060218212344780
0.015358716917154	0.013679327916460	0.087802663441690
0.020478289222872	0.018250890306070	0.11336736301963
0.025597861528590	0.021859210436781	0.13747433763545
0.030717433834308	0.024176079441421	0.16127347318629
0.035837006140025	0.025925680133629	0.18561665100227
0.040956578445743	0.027982243540693	0.21020458754047
0.046076150751461	0.030185340709652	0.23431483207288
0.051195723057179	0.031863273644329	0.25813644883469
0.056315295362897	0.033209805121539	0.28238664723493
0.061434867668615	0.034972130950765	0.30691955260527
0.066554439974333	0.037040192815513	0.33100048707898
0.071674012280051	0.038693462201471	0.35473680124730
0.076793584585769	0.040044150782425	0.37885026494369
0.081913156891487	0.041816571000906	0.40322796543098
0.087032729197205	0.043893562747991	0.42714701639412
0.092152301502923	0.045552114815119	0.45073281121460
0.097271873808641	0.046925187147462	0.47470792595361
0.10239144611436	0.048730564657008	0.49892863048538
0.10751101842008	0.050807044002545	0.52268068967510
0.11263059072579	0.052438690981600	0.54614272064615
0.11775016303151	0.053816816793692	0.57003051920945
0.12286973533723	0.055650224983144	0.59413774948300
0.12798930764295	0.057709938053086	0.61776241826472
0.13310887994867	0.059294909241240	0.64115682325593
0.13822845225438	0.060675343914874	0.66502030178745
0.14334802456010	0.062541728212748	0.68906396622291
0.14846759686582	0.064579174754500	0.71260757737091
0.15358716917154	0.066112432565600	0.73599393508168
0.15870674147726	0.067507231407819	0.75989338014951
0.16382631378297	0.069421701604787	0.78391739706005
0.16894588608869	0.071436871050537	0.80742316669225
0.17406545839441	0.072920352428261	0.83086409188866
0.17918503070013	0.074355367014026	0.85486327621976
0.18430460300585	0.076346415940657	0.87890894274036
0.18942417531156	0.078341778243969	0.90242324713858
0.19454374761728	0.079784573738790	0.92601055239867
0.19966331992300	0.081327950461825	0.95021499901217
0.20478289222872	0.083485200848301	0.97434656715797
0.20990246453443	0.085504141132204	0.99797306262951
0.21502203684015	0.087061203368648	1.0220127042261
0.22014160914587	0.089389115015323	1.0467691641072
0.22526118145159	0.093011151215595	1.0706344755614
0.23038075375731	0.096106622633520	1.0925898536482
0.23550032606302	0.097064449993942	1.1143007877700
0.24061989836874	0.097034762607559	1.1377617008526
0.24573947067446	0.097989001017009	1.1624461177050
0.25085904298018	0.099827940696538	1.1867442840710
0.25597861528590	0.10138913077260	1.2106520091889
0.26109818759161	0.10279078908538	1.2350164634689
0.26621775989733	0.10474325606941	1.2595508819323
0.27133733220305	0.10685023145516	1.2835833541226
0.27645690450877	0.10846508922032	1.3075607363179
0.28157647681449	0.11006651770247	1.3320892401804
0.28669604912020	0.11221593985181	1.3566540986424
0.29181562142592	0.11435983726976	1.3807302833842
0.29693519373164	0.11600081974469	1.4049039168552
0.30205476603736	0.11774830592776	1.4296459795200
0.30717433834308	0.12004204189401	1.4543280520198
0.31229391064879	0.12223168992077	1.4785443829335
0.31741348295451	0.12394068131652	1.5029701097752
0.32253305526023	0.12586348076087	1.5279591942879
0.32765262756595	0.12832881106467	1.5528076996973
0.33277219987167	0.13062373349168	1.5772225891256
0.33789177217738	0.13249259166548	1.6019371843090
0.34301134448310	0.13469339929323	1.6271848665750
0.34813091678882	0.13744902170899	1.6522014519164
0.35325048909454	0.14001140190637	1.6767921149990
0.35837006140025	0.14224683753606	1.7017010913301
0.36348963370597	0.14494095901165	1.7270038389222
0.36860920601169	0.14816886682772	1.7518568798207
0.37372877831741	0.15108977732032	1.7761356356664
0.37884835062313	0.15356931219450	1.8005901022458
0.38396792292884	0.15626079955683	1.8252525971417
0.38908749523456	0.15903215396694	1.8494593958732
0.39420706754028	0.16109691012294	1.8734351365118
0.39932663984600	0.16263109331851	1.8980782373764
0.40444621215172	0.16451250915938	1.9233272003376
0.40956578445743	0.16672151853326	1.9484570191669
0.41468535676315	0.16871442890346	1.9735915678292
0.41980492906887	0.17084012654877	1.9991720659004
0.42492450137459	0.17357304044213	2.0245795016797
0.43004407368031	0.17606914275134	2.0491623827231
0.43516364598602	0.17740407820252	2.0738541827034
0.44028321829174	0.17842137007644	2.0998351314093
0.44540279059746	0.18041803606654	2.1264728146142
0.45052236290318	0.18295910452398	2.1525269326454
0.45564193520890	0.18495387963449	2.1783521872381
0.46076150751461	0.18679077568377	2.2049101689162
0.46588107982033	0.18937215776323	2.2317398767456
0.47100065212605	0.19218537383295	2.2579542693290
0.47612022443177	0.19435784215067	2.2840914681819
0.48123979673749	0.19644962716509	2.3109960245837
0.48635936904320	0.19927423986812	2.3380766602765
0.49147894134892	0.20220532670623	2.3645436082240
0.49659851365464	0.20447195055374	2.3910529100649
0.50171808596036	0.20675422797818	2.4183533315517
0.50683765826607	0.20977348754282	2.4457393370574
0.51195723057179	0.21279463796031	2.4725162582826
0.51707680287751	0.21514534573501	2.4994472883622
0.52219637518323	0.21761109282230	2.5271816122406
0.52731594748895	0.22081214311922	2.5549126230495
0.53243551979466	0.22391649255425	2.5820503780715
0.53755509210038	0.22635984556669	2.6094523453679
0.54267466440610	0.22901841080067	2.6376579429349
0.54779423671182	0.23240009187790	2.6657753479061
0.55291380901754	0.23559243590864	2.6933313428694
0.55803338132325	0.23815083624051	2.7212607697409
0.56315295362897	0.24102377297070	2.7499829849232
0.56827252593469	0.24459694874465	2.7785425241797
0.57339209824041	0.24790108851162	2.8065941676413
0.57851167054613	0.25062220130109	2.8351272838356
0.58363124285184	0.25375687473199	2.8644354764519
0.58875081515756	0.25756672196854	2.8935322996088
0.59387038746328	0.26106572938171	2.9222079360630
0.59898995976900	0.26408170282347	2.9514726507382
0.60410953207472	0.26763228971918	2.9815028004164
0.60922910438043	0.27189211838269	3.0113370981065
0.61434867668615	0.27596685632253	3.0408841794330
0.61946824899187	0.27987635453237	3.0710876761610
0.62458782129759	0.28471029358412	3.1020025009762
0.62970739360331	0.29088889464388	3.1326086770225
0.63482696590902	0.29802609484531	3.1621587747839
0.63994653821474	0.30572252885898	3.1899790323287
0.64506611052046	0.31259550331670	3.2151526877319
0.65018568282618	0.31601676309192	3.2386125093793
0.65530525513189	0.31532307293499	3.2639845350030
0.66042482743761	0.31376609447094	3.2937096958065
0.66554439974333	0.31466418730872	3.3258751283187
0.67066397204905	0.31736421188906	3.3574487770668
0.67578354435477	0.31966106244539	3.3886075746861
0.68090311666048	0.32193204126812	3.4209514138116
0.68602268896620	0.32563493785066	3.4537630912102
0.69114226127192	0.32991425864405	3.4855088684575
0.69626183357764	0.33321935377230	3.5170240009549
0.70138140588336	0.33638052881442	3.5497763280501
0.70650097818907	0.34078237535546	3.5828694639445
0.71162055049479	0.34544941570822	3.6149511651519
0.71674012280051	0.34904413755086	3.6470435074970
0.72185969510623	0.35261896469579	3.6804483346200
0.72697926741195	0.35742498503532	3.7140683187615
0.73209883971766	0.36230581737669	3.7466934433726
0.73721841202338	0.36607966768343	3.7795324196092
0.74233798432910	0.36999475368696	3.8137339899415
0.74745755663482	0.37515395632242	3.8480085441874
0.75257712894054	0.38021544059375	3.8812993529824
0.75769670124625	0.38415913372019	3.9150002453373
0.76281627355197	0.38841996904036	3.9500944190091
0.76793584585769	0.39393286319425	3.9851083713910
0.77305541816341	0.39917689574008	4.0191595866317
0.77817499046912	0.40331454405495	4.0538188268837
0.78329456277484	0.40795741144352	4.0898805518546
0.78841413508056	0.41384826697314	4.1256965872121
0.79353370738628	0.41929771328723	4.1605793742259
0.79865327969200	0.42366944343595	4.1962566915414
0.80377285199771	0.42871873782436	4.2333056536393
0.80889242430343	0.43494311709573	4.2699377156803
0.81401199660915	0.44049411167761	4.3057369586302
0.81913156891487	0.44500896913499	4.3426241812589
0.82425114122059	0.45045673033757	4.3809328580936
0.82937071352630	0.45712930681952	4.4186767565553
0.83449028583202	0.46302404349980	4.4556336392604
0.83960985813774	0.46799422326922	4.4938414336003
0.84472943044346	0.47411551400376	4.5333844757792
0.84984900274918	0.48140746601468	4.5721651946517
0.85496857505489	0.48774930622883	4.6102558345791
0.86008814736061	0.49332208368656	4.6498420597447
0.86520771966633	0.50043641435861	4.6906706285189
0.87032729197205	0.50886736654059	4.7302853030667
0.87544686427777	0.51608790245936	4.7687644361488
0.88056643658348	0.52198448251908	4.8085335386636
0.88568600888920	0.52869481921057	4.8497980406279
0.89080558119492	0.53629380091413	4.8907818136483
0.89592515350064	0.54326020890998	4.9317605988636
0.90104472580636	0.55029790731039	4.9742311341296
0.90616429811207	0.55908243855341	5.0171751743350
0.91128387041779	0.56849535178672	5.0587026845248
0.91640344272351	0.57657630572608	5.0998963877107
0.92152301502923	0.58443031273611	5.1426175735543
0.92664258733494	0.59381350522485	5.1855743354032
0.93176215964066	0.60319777378708	5.2269618091948
0.93688173194638	0.61063850576891	5.2683985568248
0.94200130425210	0.61770387141745	5.3118415578913
0.94712087655782	0.62617364071043	5.3556866510359
0.95224044886353	0.63418504956522	5.3983078867138
0.95736002116925	0.64003641830646	5.4418814001410
0.96247959347497	0.64601823073683	5.4883215437377
0.96759916578069	0.65413220879890	5.5354203675463
0.97271873808641	0.66222162582373	5.5812925210546
0.97783831039212	0.66855481606622	5.6282026629230
0.98295788269784	0.67556320533063	5.6778324179033
0.98807745500356	0.68493504447196	5.7276523088431
0.99319702730928	0.69410000947593	5.7760116108846
0.99831659961500	0.70149635294198	5.8255336615784
1.0034361719207	0.70982337157917	5.8776786533703
1.0085557442264	0.72042855220030	5.9296642897235
1.0136753165321	0.73042608158174	5.9802726457904
1.0187948888379	0.73872023604990	6.0325202890121
1.0239144611436	0.74845966315436	6.0873988413984
1.0290340334493	0.76052816144488	6.1416361244843
1.0341536057550	0.77151955377083	6.1944623773529
1.0392731780607	0.78076218660213	6.2494207887859
1.0443927503665	0.79190815510202	6.3070861582477
1.0495123226722	0.80539449847702	6.3637095795762
1.0546318949779	0.81733708606233	6.4190200765694
1.0597514672836	0.82760423330726	6.4770661223616
1.0648710395893	0.84037734084801	6.5378584623461
1.0699906118950	0.85549441804268	6.5971093816628
1.0751101842008	0.86851035450078	6.6552112281720
1.0802297565065	0.88002710805630	6.7168319676140
1.0853493288122	0.89491096545776	6.7811941483130
1.0904689011179	0.91210713660207	6.8432937253968
1.0955884734236	0.92635810162276	6.9047136388714
1.1007080457294	0.93994742096234	6.9714292613769
1.1058276180351	0.96029599506523	7.0407424513371
1.1109471903408	0.98530098109764	7.1032713422818
1.1160667626465	1.0040213545786	7.1590553554099
1.1211863349522	1.0134564009658	7.2189820924969
1.1263059072579	1.0223536838784	7.2885991297024
1.1314254795637	1.0369064847296	7.3624629367696
1.1365450518694	1.0544613170767	7.4357798605408
1.1416646241751	1.0725375935756	7.5099703856733
1.1467841964808	1.0926685230735	7.5855462480183
1.1519037687865	1.1142024447074	7.6603437419424
1.1570233410923	1.1344169589683	7.7355825093389
1.1621429133980	1.1548364012665	7.8142957995223
1.1672624857037	1.1785832003493	7.8946786419611
1.1723820580094	1.2034624502516	7.9735979430280
1.1775016303151	1.2262426869614	8.0536894028717
1.1826212026208	1.2498824935013	8.1383421180230
1.1877407749266	1.2778024910021	8.2243765918384
1.1928603472323	1.3065003460976	8.3084711255244
1.1979799195380	1.3326716000903	8.3945771014034
1.2030994918437	1.3606242095526	8.4860988640246
1.2082190641494	1.3937480361347	8.5785094602029
1.2133386364551	1.4271895134360	8.6686078500574
1.2184582087609	1.4578559215631	8.7617572378306
1.2235777810666	1.4915376078387	8.8611100732079
1.2286973533723	1.5313338583088	8.9606334845103
1.2338169256780	1.5708589101969	9.0575172221035
1.2389364979837	1.6075235799929	9.1587537688063
1.2440560702895	1.6488656597521	9.2669388755610
1.2491756425952	1.6973813917963	9.3742314280880
1.2542952149009	1.7448192083487	9.4785520649750
1.2594147872066	1.7894775780362	9.5889095039391
1.2645343595123	1.8410967607614	9.7069258471402
1.2696539318180	1.9011105283605	9.8224470130167
1.2747735041238	1.9588298414814	9.9346906676831
1.2798930764295	2.0141363825646	10.055425250901
1.2850126487352	2.0799472143973	10.184580683346
1.2901322210409	2.1559483834841	10.308631009719
1.2952517933466	2.2280098069621	10.429027566128
1.3003713656524	2.2992161581124	10.561599609189
1.3054909379581	2.3880000713384	10.702450819063
1.3106105102638	2.4905153412896	10.831321195659
1.3157300825695	2.5862241548949	10.953545274297
1.3208496548752	2.6863603940827	11.091188844921
1.3259692271809	2.8219318652435	11.223658827410
1.3310887994867	2.9675506341508	11.298924802019
1.3362083717924	3.0425525615088	11.330278396703
1.3413279440981	3.0253666190795	11.418206729534
1.3464475164038	3.0089678440806	11.630590091623
1.3515670887095	3.0939859710352	11.912199718475
1.3566866610153	3.2736158808916	12.161970827646
1.3618062333210	3.4740521156566	12.354161075826
1.3669258056267	3.6634986972494	12.529821186062
1.3720453779324	3.8624111152249	12.710497178883
1.3771649502381	4.0807590650471	12.883291084500
1.3822845225438	4.3077904615954	13.045663202999
1.3874040948496	4.5458614229483	13.207533504443
1.3925236671553	4.8047657621623	13.363646267573
1.3976432394610	5.0783843394250	13.505914697872
1.4027628117667	5.3638740605727	13.642794071210
1.4078823840724	5.6775957924932	13.771304186224
1.4130019563781	6.0153023204536	13.862176994569
1.4181215286839	6.3331410949317	13.913996379423
1.4232411009896	6.6156255137438	13.984146630774
1.4283606732953	6.9265900641000	14.112671591648
1.4334802456010	7.3356818876000	14.247047409568
1.4385998179067	7.8217836898350	14.300560137623
1.4437193902125	8.3074951857386	14.260271783275
1.4488389625182	8.7657515908066	14.177705456533
1.4539585348239	9.2300343516616	14.073602176971
1.4590781071296	9.7149098644622	13.916781025071
1.4641976794353	10.191624830659	13.688317569169
1.4693172517410	10.640137070359	13.404116963286
1.4744368240468	11.067390906102	13.070970008115
1.4795563963525	11.467663771780	12.672573685693
1.4846759686582	11.811056838031	12.207043900233
1.4897955409639	12.078641183434	11.697745368554
1.4949151132696	12.272464563535	11.161803107962
1.5000346855754	12.387631073861	10.602670420819
1.5051542578811	12.408322232822	10.036614390405
1.5102738301868	12.334841827739	9.4947870608364
1.5153934024925	12.186165401205	8.9960713488104
1.5205129747982	11.974878953394	8.5436279869336
1.5256325471039	11.704713870295	8.1468002083667
1.5307521194097	11.390708457004	7.8209175670754
1.5358716917154	11.056958329925	7.5668231276919
1.5409912640211	10.715564703665	7.3732483321412
1.5461108363268	10.368309975144	7.2370038769992
1.5512304086325	10.024951397177	7.1610617232987
1.5563499809382	9.6999517585644	7.1376217152680
1.5614695532440	9.3958154201123	7.1525926483879
1.5665891255497	9.1078738615797	7.2021957435321
1.5717086978554	8.8402035247669	7.2882512539288
1.5768282701611	8.6005738373878	7.4033321775036
1.5819478424668	8.3863809451184	7.5365336023533
1.5870674147726	8.1909623482310	7.6871494377354
1.5921869870783	8.0168448441705	7.8581610826760
1.5973065593840	7.8690660822925	8.0436734263084
1.6024261316897	7.7433254241222	8.2359554465324
1.6075457039954	7.6334298617264	8.4367581556115
1.6126652763011	7.5421658368779	8.6496210916442
1.6177848486069	7.4734648486198	8.8695506888032
1.6229044209126	7.4227369288453	9.0910578948531
1.6280239932183	7.3852228899431	9.3171883861827
1.6331435655240	7.3644728797626	9.5507948515902
1.6382631378297	7.3632068542623	9.7865052109932
1.6433827101355	7.3755598207278	10.020275190384
1.6485022824412	7.3969082296406	10.257072861594
1.6536218547469	7.4315626964413	10.501077048300
1.6587414270526	7.4832767863191	10.748137636882
1.6638609993583	7.5481562847883	10.994876670882
1.6689805716640	7.6235023996949	11.245108569017
1.6741001439698	7.7135127170374	11.501059550877
1.6792197162755	7.8204300327744	11.758313743390
1.6843392885812	7.9400286484934	12.014781038856
1.6894588608869	8.0706789210779	12.274762888735
1.6945784331926	8.2170147045861	12.539848960657
1.6996980054984	8.3808433122855	12.805649173237
1.7048175778041	8.5582940261091	13.070858260050
1.7099371501098	8.7488653606975	13.339701756132
1.7150567224155	8.9574953216112	13.612921355045
1.7201762947212	9.1856135678500	13.886074020176
1.7252958670269	9.4298241859401	14.158402366772
1.7304154393327	9.6907102974135	14.433777495800
1.7355350116384	9.9734359772001	14.711973113292
1.7406545839441	10.279139480058	14.988397365223
1.7457741562498	10.605023463339	15.262567764672
1.7508937285555	10.952722161946	15.537666840625
1.7560133008612	11.327550514225	15.812288938979
1.7611328731670	11.730422945260	16.081480701995
1.7662524454727	12.159227399759	16.344621810735
1.7713720177784	12.616547736672	16.603701881127
1.7764915900841	13.107659937426	16.855741268722
1.7816111623898	13.633181381663	17.095027887557
1.7867307346956	14.191606997747	17.320164258438
1.7918503070013	14.786103016193	17.531171252433
1.7969698793070	15.421345025009	17.722906346925
1.8020894516127	16.097326001007	17.888386924623
1.8072090239184	16.813023286001	18.024319075856
1.8123285962241	17.571274031183	18.126663089032
1.8174481685299	18.373315629888	18.186041637522
1.8225677408356	19.214108682052	18.194131506958
1.8276873131413	20.089495666009	18.148580046441
1.8328068854470	21.001545673579	18.045156600637
1.8379264577527	21.950349188134	17.871650597187
1.8430460300585	22.927231140871	17.615670114426
1.8481656023642	23.921660749687	17.271196566459
1.8532851746699	24.926499044617	16.831895445847
1.8584047469756	25.930088033837	16.287134720219
1.8635243192813	26.912223400777	15.631885754990
1.8686438915870	27.855456589438	14.872090356851
1.8737634638928	28.752105517772	14.013004994005
1.8788830361985	29.592807792820	13.050684554983
1.8840026085042	30.356308220615	11.982667867880
1.8891221808099	31.018068730813	10.819725621084
1.8942417531156	31.561884538684	9.5805090019877
1.8993613254214	31.977019909479	8.2824812649379
1.9044808977271	32.252427653083	6.9449097449230
1.9096004700328	32.381728035655	5.5931813891177
1.9147200423385	32.368224588666	4.2526129730994
1.9198396146442	32.219476964278	2.9427824521743
1.9249591869499	31.942721303013	1.6818319376360
1.9300787592557	31.549629370124	0.48923777397086
1.9351983315614	31.058593723737	-0.62053101425172
1.9403179038671	30.487683419995	-1.6412503945870
1.9454374761728	29.850807258956	-2.5687085669024
1.9505570484785	29.163044193701	-3.3976482267076
1.9556766207842	28.442534369820	-4.1273348025483
1.9607961930900	27.704119451592	-4.7631623006200
1.9659157653957	26.957408677647	-5.3101493045984
1.9710353377014	26.212820844388	-5.7711573930876
1.9761549100071	25.482605584842	-6.1528562525015
1.9812744823128	24.774293401176	-6.4662743310111
1.9863940546186	24.089901922668	-6.7197882890908
1.9915136269243	23.432731730399	-6.9180024746456
1.9966331992300	22.808282809189	-7.0680874911006
2.0017527715357	22.218037849070	-7.1802037603919
2.0068723438414	21.659368900639	-7.2612137169158
2.0119919161471	21.131758173285	-7.3149657057613
2.0171114884529	20.635699263797	-7.3487291373639
2.0222310607586	20.164996419667	-7.3714088679840
2.0273506330643	19.707726839167	-7.3838425301032
2.0324702053700	19.256866560231	-7.3768924456356
2.0375897776757	18.815591240224	-7.3401552452460
2.0427093499815	18.393035977507	-7.2685091198405
2.0478289222872	18.000112629585	-7.1623644719763
2.0529484945929	17.647541341249	-7.0282754956174
2.0580680668986	17.340923888648	-6.8787784890642
