#Parameters = {n=24}
#"Frequency / GHz"	"Z (n=24) [Re]"	"Z (n=24) [Im]"
#-------------------------------------------------
0.0000000000000	1.0194429475213	-3.1939314288801e-13
0.00020480336573447	0.58286998414235	-0.67151897457733
0.00040960673146894	-0.089256686468412	-0.55394847806695
0.00061441009720341	-0.17082732285253	-0.077604534389985
0.00081921346293787	0.090498010409006	0.0086051605939590
0.0010240168286723	0.085470911011687	-0.15436311567067
0.0012288201944068	-0.075816707784149	-0.097865085414431
0.0014336235601413	-0.032350074460422	0.056706510348883
0.0016384269258757	0.074654198119922	0.022666290124253
0.0018432302916102	0.014151392627443	-0.045347408090320
0.0020480336573447	-0.052142801484346	0.035888306148017
0.0022528370230792	0.016268216934863	0.10078429184747
0.0024576403888136	0.052675093000794	0.046170554196533
0.0026624437545481	-0.013492899724804	0.036340670504552
0.0028672471202826	-0.023686960929351	0.11275350710225
0.0030720504860170	0.037508881914634	0.12504882079972
0.0032768538517515	0.029889477756945	0.080586545576701
0.0034816572174860	-0.019656585656214	0.10754833686724
0.0036864605832204	0.0034548019027473	0.16248274049556
0.0038912639489549	0.042045829339769	0.14546044644892
0.0040960673146894	0.011498562496738	0.12450512030986
0.0043008706804238	-0.012142555590717	0.16851129685897
0.0045056740461583	0.024176938547773	0.19604282295326
0.0047104774118928	0.036089600750324	0.16962585989950
0.0049152807776272	0.0011299472384196	0.17420927679332
0.0051200841433617	0.0026466242010936	0.21803909204889
0.0053248875090962	0.035669869757583	0.22129752205681
0.0055296908748306	0.025595210766205	0.20093136064292
0.0057344942405651	-7.4591876935716e-05	0.22486791847562
0.0059392976062996	0.018692301924015	0.25657573635865
0.0061441009720341	0.037944373221232	0.24484864808949
0.0063489043377685	0.015950886403582	0.23937471882041
0.0065537077035030	0.0064239575514566	0.27200994725262
0.0067585110692375	0.031196019760899	0.28669835852771
0.0069633144349719	0.033486192385468	0.27151862799804
0.0071681178007064	0.010931152208941	0.28243087408083
0.0073729211664409	0.017230941112435	0.31279574661612
0.0075777245321753	0.037480287893440	0.31246351871495
0.0077825278979098	0.026200793624137	0.30369858443801
0.0079873312636443	0.011969380874093	0.32636042193217
0.0081921346293787	0.028266680423067	0.34670300303626
0.0083969379951132	0.037386730174110	0.33817697489141
0.0086017413608477	0.020052886609759	0.34119511406399
0.0088065447265821	0.018119496751073	0.36762059320148
0.0090113480923166	0.036090481538494	0.37539542756308
0.0092161514580511	0.032885275618742	0.36712767799748
0.0094209548237855	0.017796937716022	0.38181598884184
0.0096257581895200	0.026737772426750	0.40406479215297
0.0098305615552545	0.038926256584869	0.40192527633248
0.010035364920989	0.027108649496670	0.40073179274159
0.010240168286723	0.020246564502455	0.42246519905991
0.010444971652458	0.034632071799047	0.43552328241762
0.010649775018192	0.037041660227958	0.42954739598289
0.010854578383927	0.023121597530309	0.43835381208127
0.011059381749661	0.026268849502018	0.46038586084659
0.011264185115396	0.039268255901481	0.46363241038261
0.011468988481130	0.032390466922416	0.46056586901292
0.011673791846865	0.022828052021314	0.47782713596107
0.011878595212599	0.033433783190369	0.49415613030431
0.012083398578334	0.039627064501073	0.49106276366188
0.012288201944068	0.027716682728067	0.49562662750995
0.012493005309803	0.026407667125540	0.51644858564707
0.012697808675537	0.039067395918775	0.52409745660756
0.012902612041272	0.036438022362456	0.52043155333980
0.013107415407006	0.025446934115341	0.53365809468250
0.013312218772740	0.032417739360539	0.55207765368036
0.013517022138475	0.041305120169300	0.55201592322501
0.013721825504209	0.031762049547962	0.55332111379760
0.013926628869944	0.026795324662455	0.57243854228648
0.014131432235678	0.038491069475682	0.58392857855094
0.014336235601413	0.039762748171309	0.58039277036559
0.014541038967147	0.028090880936499	0.58973922250792
0.014745842332882	0.031362281253639	0.60955705875205
0.014950645698616	0.042323543711325	0.61281727973738
0.015155449064351	0.035610284786916	0.61139146656807
0.015360252430085	0.027357615233591	0.62822323846987
0.015565055795820	0.037402358685159	0.64338796864990
0.015769859161554	0.042609803164983	0.64075279734262
0.015974662527289	0.031043067430121	0.64599315194907
0.016179465893023	0.030176815446005	0.66647547406990
0.016384269258757	0.042559558739330	0.67371875121750
0.016589072624492	0.039526387672235	0.67010575456068
0.016793875990226	0.028366992166872	0.68365474212862
0.016998679355961	0.035635986366270	0.70233009382073
0.017203482721695	0.044844722149210	0.70182195551615
0.017408286087430	0.034651821869955	0.70265438101670
0.017613089453164	0.029084685185554	0.72255318122120
0.017817892818899	0.041700254521290	0.73462011492290
0.018022696184633	0.043445724526548	0.72991114983963
0.018227499550368	0.030312031609703	0.73885178412481
0.018432302916102	0.033269788034461	0.76032496366367
0.018637106281837	0.046021111769503	0.76366644296737
0.018841909647571	0.039060922839198	0.76027053103088
0.019046713013306	0.028657268599418	0.77765116835703
0.019251516379040	0.039543487821785	0.79502261139799
0.019456319744775	0.046897128778218	0.79115778757500
0.019661123110509	0.033639412947378	0.79432102360407
0.019865926476243	0.030781879874122	0.81690173097908
0.020070729841978	0.045599268577431	0.82591850361136
0.020275533207712	0.043980913666087	0.81950837135776
0.020480336573447	0.029635187859507	0.83202813341425
0.020685139939181	0.036261369906521	0.85418148477203
0.020889943304916	0.049103499332631	0.85382768136669
0.021094746670650	0.038454372752599	0.85091049127117
0.021299550036385	0.029034988676762	0.87187709842255
0.021504353402119	0.043276004762098	0.88776983734638
0.021709156767854	0.048641488762780	0.88084087588581
0.021913960133588	0.032624311513462	0.88644310947380
0.022118763499323	0.032547817974682	0.91140892943729
0.022323566865057	0.049272046136204	0.91735594481089
0.022528370230792	0.044309771010510	0.90954799624690
0.022733173596526	0.029048066404392	0.92560314786576
0.022937976962260	0.039265901690830	0.94816588943827
0.023142780327995	0.051946481855351	0.94423776952135
0.023347583693729	0.037760694253055	0.94204254332306
0.023552387059464	0.029546553917194	0.96642652373751
0.023757190425198	0.046950600146157	0.98065592048049
0.023961993790933	0.050171658905268	0.97088518714126
0.024166797156667	0.031633969475939	0.97906315454571
0.024371600522402	0.034444084362494	1.0061728775886
0.024576403888136	0.052825494953559	1.0089868438351
0.024781207253871	0.044488598979558	1.0000450747422
0.024986010619605	0.028575079038651	1.0196435205204
0.025190813985340	0.042360172115631	1.0423650248957
0.025395617351074	0.054636295155115	1.0349278596925
0.025600420716809	0.037009067692943	1.0336951909221
0.025805224082543	0.030225331422162	1.0613820323045
0.026010027448277	0.050651212898602	1.0737503942894
0.026214830814012	0.051551104924762	1.0613118366234
0.026419634179746	0.030687213492740	1.0722272165270
0.026624437545481	0.036518850348370	1.1012780163473
0.026829240911215	0.056340501601176	1.1008614651124
0.027034044276950	0.044561921022081	1.0910219856310
0.027238847642684	0.028240080858325	1.1142077955385
0.027443651008419	0.045605494665038	1.1368490897636
0.027648454374153	0.057239613097318	1.1259282627642
0.027853257739888	0.036227485962209	1.1258969920260
0.028058061105622	0.031103571630580	1.1568059416044
0.028262864471357	0.054440869888875	1.1671024731651
0.028467667837091	0.052824062419115	1.1521391785044
0.028672471202826	0.029800350395634	1.1659732702461
0.028877274568560	0.038810404209061	1.1967820816008
0.029082077934295	0.059868488452046	1.1930084705275
0.029286881300029	0.044546957754810	1.1824948167467
0.029491684665763	0.028048394421242	1.2093436803677
0.029696488031498	0.049033988228765	1.2316699855251
0.029901291397232	0.059782316424348	1.2172630713509
0.030106094762967	0.035409786230491	1.2186827022577
0.030310898128701	0.032185199881563	1.2527638454459
0.030515701494436	0.058347507770612	1.2607648959157
0.030720504860170	0.053998242279189	1.2434003417191
0.030925308225905	0.028961121359849	1.2603590840243
0.031130111591639	0.041329394859664	1.2927609804784
0.031334914957374	0.063430189522751	1.2854822742390
0.031539718323108	0.044438860135904	1.2745164303971
0.031744521688843	0.027996372558330	1.3051348980689
0.031949325054577	0.052672692954010	1.3269108170040
0.032154128420312	0.062288411494178	1.3089896979777
0.032358931786046	0.034558574691115	1.3121192152879
0.032563735151780	0.033488702500561	1.3493428359510
0.032768538517515	0.062409495292305	1.3548054853955
0.032973341883249	0.055091820122347	1.3351454392878
0.033178145248984	0.028174721600384	1.3554556857846
0.033382948614718	0.044104307454770	1.3892931333459
0.033587751980453	0.067057981507921	1.3783348012287
0.033792555346187	0.044243239179940	1.3671359925093
0.033997358711922	0.028090108748969	1.4016532466824
0.034202162077656	0.056546966584137	1.4226344776199
0.034406965443391	0.064766056790785	1.4011490858804
0.034611768809125	0.033655757877934	1.4062652488210
0.034816572174860	0.035009398660068	1.4466243849916
0.035021375540594	0.066634254588829	1.4492909411902
0.035226178906329	0.056088477334527	1.4274357192618
0.035430982272063	0.027417648571402	1.4513540231465
0.035635785637798	0.047138069754927	1.4864774275298
0.035840589003532	0.070755097375507	1.4716429818818
0.036045392369266	0.043938653444660	1.4604394633573
0.036250195735001	0.028319091821599	1.4990141690047
0.036454999100735	0.060673276306540	1.5189476317156
0.036659802466470	0.067219827413331	1.4938290182869
0.036864605832204	0.032691829881945	1.5012289059463
0.037069409197939	0.036764095145395	1.5447309734405
0.037274212563673	0.071052447209193	1.5443168010207
0.037479015929408	0.056992667929363	1.5203574237714
0.037683819295142	0.026691372571007	1.5481674633372
0.037888622660877	0.050461201747464	1.5844245810787
0.038093426026611	0.074545190214427	1.5654868535797
0.038298229392346	0.043518292588684	1.5545164521479
0.038503032758080	0.028689295942188	1.5973342620420
0.038707836123815	0.065080221545712	1.6159475318956
0.038912639489549	0.069651337768431	1.5871048391254
0.039117442855283	0.031645059021138	1.5971152228208
0.039322246221018	0.038759017644045	1.6437876214652
0.039527049586752	0.075681697079851	1.6399786629970
0.039731852952487	0.057786476593297	1.6140003408496
0.039936656318221	0.025972190337435	1.6460236453079
0.040141459683956	0.054082883250899	1.6832651120192
0.040346263049690	0.078430207889617	1.6599678051271
0.040551066415425	0.042952166906766	1.6494845655300
0.040755869781159	0.029188623037468	1.6967647896852
0.040960673146894	0.069783581810797	1.7137663067544
0.041165476512628	0.072050092520006	1.6810875848842
0.041370279878363	0.030485364284094	1.6940682238458
0.041575083244097	0.040997213492718	1.7439554447565
0.041779886609832	0.080532624866087	1.7364043308092
0.041984689975566	0.058440517427469	1.7084940810162
0.042189493341301	0.025234462659918	1.7450981680239
0.042394296707035	0.058020897322858	1.7831695557544
0.042599100072769	0.082414175321738	1.7552175176617
0.042803903438504	0.042203772571862	1.7454988473697
0.043008706804238	0.029805907086016	1.7975029463389
0.043213510169973	0.074807170087401	1.8125752713116
0.043418313535707	0.074405705285342	1.7759233369331
0.043623116901442	0.029179433539489	1.7922785118141
0.043827920267176	0.043491810138845	1.8454484398366
0.044032723632911	0.085634994300512	1.8337643076913
0.044237526998645	0.058939683983356	1.8040036626867
0.044442330364380	0.024465020237087	1.8456042020364
0.044647133730114	0.062308700120415	1.8843428787899
0.044851937095849	0.086511678541733	1.8513970165690
0.045056740461583	0.041242282807157	1.8427492427234
0.045261543827318	0.030543150414456	1.8997838635280
0.045466347193052	0.080190822901579	1.9125724877233
0.045671150558786	0.076711123109079	1.8717793282283
0.045875953924521	0.027690638087439	1.8919669209528
0.046080757290255	0.046257657599849	1.9485115323941
0.046285560655990	0.091011603299955	1.9322513009032
0.046490364021724	0.059242703352642	1.9007272213643
0.046695167387459	0.023627670758181	1.9478128772401
0.046899970753193	0.066975712860543	1.9870518338112
0.047104774118928	0.090733736646319	1.9487189406370
0.047309577484662	0.040023865480033	1.9414848072588
0.047514380850397	0.031397979768684	2.0039154321627
0.047719184216131	0.085981444962399	2.0140247470714
0.047923987581866	0.078961280129741	1.9688894227314
0.048128790947600	0.025987331404817	1.9934357404762
0.048333594313335	0.049337268931115	2.0534733225045
0.048538397679069	0.096722416592413	2.0321221250597
0.048743201044804	0.059335562874022	1.9989192692252
0.048948004410538	0.022716803132241	2.0520568587593
0.049152807776272	0.072092019690526	2.0916108410391
0.049357611142007	0.095116252820631	2.0474253370379
0.049562414507741	0.038509617419180	2.0419954409203
0.049767217873476	0.032383733962800	2.1102602727091
0.049972021239210	0.092251287377171	2.1172353729610
0.050176824604945	0.081151776730604	2.0675094775891
0.050381627970679	0.024017860276057	2.0970290237988
0.050586431336414	0.052762616239618	2.1607185692161
0.050791234702148	0.10281548591034	2.1336795359417
0.050996038067883	0.059169070856005	2.0988887229187
0.051200841433617	0.021692764728047	2.1587536985118
0.051405644799352	0.077716033489818	2.1984233030781
0.051610448165086	0.099678714055191	2.1478341412289
0.051815251530821	0.036628189173002	2.1446627915468
0.052020054896555	0.033496552446986	2.2192941896214
0.052224858262289	0.099070495712035	2.2226097624945
0.052429661628024	0.083258130156990	2.1679933520174
0.052634464993758	0.021707088193766	2.2032188917878
0.052839268359493	0.056574379834014	2.2707690617153
0.053044071725227	0.10935371574677	2.2373363729691
0.053248875090962	0.058680868470408	2.2010579353533
0.053453678456696	0.020509386255817	2.2684684167744
0.053658481822431	0.083932279162546	2.3080349014405
0.053863285188165	0.10445538308546	2.2503800324366
0.054068088553900	0.034297178256978	2.2500086750635
0.054272891919634	0.034749036329663	2.3316660070502
0.054477695285369	0.10655817894119	2.3307038513536
0.054682498651103	0.085283207550146	2.2708237018493
0.054887302016838	0.018995066428291	2.3126358517346
0.055092105382572	0.060865829043938	2.3843143745301
0.055296908748306	0.11646006578210	2.3436335126801
0.055501712114041	0.057828536228139	2.3059746281772
0.055706515479775	0.019143545091122	2.3819315631787
0.055911318845510	0.090887511595760	2.4211466156794
0.056116122211244	0.10952439558877	2.3556131181891
0.056320925576979	0.031436836386715	2.3586923943329
0.056525728942713	0.036178989041063	2.4481967685226
0.056730532308448	0.11487988580819	2.4422138026426
0.056935335674182	0.087224910246069	2.3766063442312
0.057140139039917	0.015789858070408	2.4260946373120
0.057344942405651	0.065749666638817	2.5022583008936
0.057549745771386	0.12428904685275	2.4532829384420
0.057754549137120	0.056547892235186	2.4143652206976
0.057959352502855	0.017560248665099	2.5001177060606
0.058164155868589	0.098775931775288	2.5386941327268
0.058368959234324	0.11498588296197	2.4642695886164
0.058573762600058	0.027936549880192	2.4716049350920
0.058778565965792	0.037843636371229	2.5699995172228
0.058983369331527	0.12427353154614	2.5580774770078
0.059188172697261	0.089092342993767	2.4861466736748
0.059392976062996	0.011969768046182	2.5446784581283
0.059597779428730	0.071370625205630	2.6258042301783
0.059802582794465	0.13302747744419	2.5672321405376
0.060007386160199	0.054715144183094	2.5272128721746
0.060212189525934	0.015675734002645	2.6243692515634
0.060416992891668	0.10783533908456	2.6619773814846
0.060621796257403	0.12094925779141	2.5773796634933
0.060826599623137	0.023610468699502	2.5900008111210
0.061031402988872	0.039789190708725	2.6986543372374
0.061236206354606	0.13504357345122	2.6796521213420
0.061441009720341	0.090887048500572	2.6006373023548
0.061645813086075	0.0073797922207597	2.6699816979925
0.061850616451809	0.077977994520939	2.7567136421911
0.062055419817544	0.14300690141919	2.6868671300150
0.062260223183278	0.052233587946679	2.6459341561196
0.062465026549013	0.013450643335415	2.7565949283701
0.062669829914747	0.11847978382948	2.7928335843876
0.062874633280482	0.12764266373415	2.6963883557240
0.063079436646216	0.018262151029210	2.7156358885059
0.063284240011951	0.042143569337532	2.8363706121118
0.063489043377685	0.14767044373755	2.8088167034869
0.063693846743420	0.092627836330778	2.7217212626074
0.063898650109154	0.0017907644083715	2.8042416406196
0.064103453474889	0.085914679969447	2.8974846999539
0.064308256840623	0.15468056400933	2.8141595584196
0.064513060206358	0.048925735473262	2.7725659682043
0.064717863572092	0.010788208935006	2.8995724970359
0.064922666937827	0.13127434423613	2.9339574676574
0.065127470303561	0.13535557137025	2.8234432730670
0.065332273669295	0.011567546025190	2.8511548257858
0.065537077035030	0.045097945129671	2.9864909610643
0.065741880400764	0.16290528564727	2.9484215539967
0.065946683766499	0.094392678151330	2.8518815115588
0.066151487132233	-0.0050930562834806	2.9508215484336
0.066356290497968	0.095735404569357	3.0518738375569
0.066561093863702	0.16875822970859	2.9520843778107
0.066765897229437	0.044543873883681	2.9102081686483
0.066970700595171	0.0075818471500862	3.0575511198392
0.067175503960906	0.14714624690231	3.0894689919583
0.067380307326640	0.14459174590170	2.9618059881597
0.067585110692375	0.0030564347493179	3.0005761761012
0.067789914058109	0.048937702569058	3.1541308326252
0.067994717423844	0.18186576241909	3.1028636665250
0.068199520789578	0.096235762959683	2.9950130911525
0.068404324155312	-0.013776102598485	3.1150636239156
0.068609127521047	0.10831674917846	3.2258717907860
0.068813930886781	0.18637409176601	3.1054028631147
0.069018734252516	0.038688062148715	3.0638496346480
0.069223537618250	0.0036581182392846	3.2374070635267
0.069428340983985	0.16759356723488	3.2660844745349
0.069633144349719	0.15617250657597	3.1168653503757
0.069837947715454	-0.0079953077226888	3.1705963932740
0.070042751081188	0.054250925427523	3.3478240626308
0.070247554446923	0.20656405437265	3.2794847263002
0.070452357812657	0.098408858448665	3.1576206098159
0.070657161178392	-0.024946093914935	3.3059189063266
0.070861964544126	0.12530122336702	3.4295617253604
0.071066767909861	0.20962037717582	3.2821549030202
0.071271571275595	0.030847938075784	3.2419526758854
0.071476374641329	-0.0011011517386417	3.4508701783382
0.071681178007064	0.19536829740640	3.4752903507563
0.071885981372798	0.17163897264024	3.2978554228586
0.072090784738533	-0.022784644050996	3.3728214802510
0.072295588104267	0.062126114531756	3.5825115161575
0.072500391470002	0.24057960692786	3.4912242370437
0.072705194835736	0.10131201538127	3.3513051923890
0.072909998201471	-0.039884467979756	3.5395776867487
0.073114801567205	0.14966568188195	3.6813486414779
0.073319604932940	0.24228684282759	3.4971816215915
0.073524408298674	0.020018396389305	3.4603986333150
0.073729211664409	-0.0068573843232217	3.7201802250590
0.073934015030143	0.23584319249129	3.7390582974296
0.074138818395878	0.19413617879368	3.5226579539572
0.074343621761612	-0.043331316997445	3.6299373457117
0.074548425127347	0.075117353513149	3.8875718679341
0.074753228493081	0.29143416947612	3.7637285863338
0.074958031858815	0.10620381983413	3.5993406415996
0.075162835224550	-0.060583137515061	3.8488500165781
0.075367638590284	0.18818863393416	4.0187937118304
0.075572441956019	0.29281498498531	3.7810137004690
0.075777245321753	0.0046507531525840	3.7523594653738
0.075982048687488	-0.013273891913302	4.0924297143812
0.076186852053222	0.30121051585269	4.1043778659918
0.076391655418957	0.23091130324019	3.8300985373712
0.076596458784691	-0.073676058132077	3.9923442433315
0.076801262150426	0.099725457586198	4.3293123002411
0.077006065516160	0.37710497590638	4.1557305312797
0.077210868881895	0.11673520330009	3.9562283534083
