#"Frequency / GHz"	"Z [Re]"	"Z [Im]"
#-----------------------------------
0.0000000000000	0.63904868770021	-1.3205266431602e-11
0.00012798930337368	0.43639691124674	0.039608071862567
0.00025597860674737	-0.046006943634680	0.37345343797619
0.00038396791012105	-0.50867168155737	1.1145956275856
0.00051195721349474	-0.66231891265949	2.1249831461029
0.00063994651686842	-0.40602269090896	3.0997986066027
0.00076793582024211	0.11006727680116	3.7544817011495
0.00089592512361579	0.57612677367913	3.9997630020297
0.0010239144269895	0.71237783758108	3.9972284000135
0.0011519037303632	0.44090561066844	4.0610443255321
0.0012798930337368	-0.065895983787729	4.4657771739615
0.0014078823371105	-0.49027166259599	5.2779622160159
0.0015358716404842	-0.56346835438754	6.3147749014550
0.0016638609438579	-0.23056568667448	7.2554641212774
0.0017918502472316	0.31535179759590	7.8376146080668
0.0019198395506053	0.75095563680153	8.0181402542997
0.0020478288539790	0.82056393244304	8.0002329272818
0.0021758181573526	0.49306070441200	8.1094061708181
0.0023038074607263	-0.018455364161639	8.5942282466514
0.0024317967641000	-0.38670453253511	9.4737028685273
0.0025597860674737	-0.37063266526525	10.524994717219
0.0026877753708474	0.036483706914081	11.419426340431
0.0028157646742211	0.60220412763608	11.923795644473
0.0029437539775947	0.99676861000397	12.043761556298
0.0030717432809684	0.99510002367635	12.021176297934
0.0031997325843421	0.61527090220705	12.186512816326
0.0033277218877158	0.10828086253806	12.756402665034
0.0034557111910895	-0.19512124879542	13.700283456838
0.0035837004944632	-0.087134124963840	14.758225089769
0.0037116897978368	0.38904974111441	15.599586431085
0.0038396791012105	0.96471792703376	16.025721294493
0.0039676684045842	1.3096434126336	16.092529255069
0.0040956577079579	1.2345734950257	16.077294638736
0.0042236470113316	0.80809835608592	16.309466476185
0.0043516363147053	0.31576756285948	16.968614001632
0.0044796256180790	0.085792888419946	17.973425096385
0.0046076149214526	0.28767677091712	19.030343685139
0.0047356042248263	0.82726069486776	19.812802817895
0.0048635935282000	1.4031440946398	20.161693307125
0.0049915828315737	1.6907084443442	20.184084010146
0.0051195721349474	1.5414514652648	20.188997317970
0.0052475614383211	1.0752959166698	20.498742446949
0.0053755507416947	0.60853861628095	21.250948739673
0.0055035400450684	0.46069283513724	22.312847325411
0.0056315293484421	0.75812370705597	23.361166209238
0.0057595186518158	1.3550981481089	24.079623619516
0.0058875079551895	1.9215384893319	24.353454122339
0.0060154972585632	2.1446928677829	24.341413452515
0.0061434865619369	1.9215844685294	24.380154795200
0.0062714758653105	1.4238945820971	24.778543393412
0.0063994651686842	0.99445982289899	25.627524541278
0.0065274544720579	0.93773691676967	26.742538367703
0.0066554437754316	1.3322302018028	27.774908054535
0.0067834330788053	1.9803798811384	28.425056351689
0.0069114223821790	2.5278394049340	28.627274009727
0.0070394116855526	2.6802012205118	28.592182391578
0.0071674009889263	2.3847138816900	28.679565408852
0.0072953902923000	1.8649193018757	29.178309880344
0.0074233795956737	1.4855942298184	30.127989608083
0.0075513688990474	1.5295350417673	31.292230251284
0.0076793582024211	2.0226953701481	32.301656248513
0.0078073475057947	2.7157303957545	32.880079952064
0.0079353368091684	3.2348281301624	33.015554993316
0.0080633261125421	3.3106871253837	32.970474058437
0.0081913154159158	2.9455016206477	33.122858647886
0.0083193047192895	2.4145208458061	33.734781493630
0.0084472940226632	2.0994658839115	34.789712500733
0.0085752833260369	2.2545438376893	35.999680470507
0.0087032726294105	2.8483912333331	36.979722233721
0.0088312619327842	3.5801412721044	37.484081647447
0.0089592512361579	4.0617309500438	37.559397938911
0.0090872405395316	4.0561139804089	37.519545408140
0.0092152298429053	3.6253045765834	37.755476531733
0.0093432191462790	3.0959322939656	38.495197986794
0.0094712084496526	2.8612426555294	39.661153123520
0.0095991977530263	3.1394679406701	40.914148073999
0.0097271870564000	3.8369227133263	41.859186908082
0.0098551763597737	4.6016110637297	42.288496431788
0.0099831656631474	5.0368909220252	42.312424257491
0.010111154966521	4.9456797722163	42.295944496132
0.010239144269895	4.4550445864774	42.637169449978
0.010367133573268	3.9426066598230	43.522181908019
0.010495122876642	3.8072311829983	44.807063280306
0.010623112180016	4.2231195516007	46.101811221902
0.010751101483389	5.0287731358219	47.007473066950
0.010879090786763	5.8214623166758	47.362566975877
0.011007080090137	6.2021855214823	47.346855009244
0.011135069393511	6.0223706278812	47.376083731930
0.011263058696884	5.4800442176164	47.849193087138
0.011391048000258	5.0035292634352	48.901573408019
0.011519037303632	4.9908083522196	50.316853511309
0.011647026607005	5.5629811160684	51.654512011254
0.011775015910379	6.4843748608075	52.518379484742
0.011903005213753	7.3017433940682	52.802732880662
0.012030994517126	7.6206583481559	52.763481676266
0.012158983820500	7.3508979507530	52.867086245086
0.012286973123874	6.7685280070682	53.506245993648
0.012414962427247	6.3526188509945	54.755481519501
0.012542951730621	6.4929680780957	56.318581636979
0.012670941033995	7.2469225340303	57.704429685115
0.012798930337368	8.2967943538128	58.527303058934
0.012926919640742	9.1385929712895	58.748534807116
0.013054908944116	9.3904112223612	58.708662874476
0.013182898247489	9.0322783673226	58.925401928332
0.013310887550863	8.4273730596324	59.777092838626
0.013438876854237	8.1062678644639	61.264962781126
0.013566866157611	8.4421112814935	63.003385470246
0.013694855460984	9.4153090151865	64.449835881864
0.013822844764358	10.615823284202	65.238101576610
0.013950834067732	11.487832991126	65.410861725147
0.014078823371105	11.671476844833	65.404742406303
0.014206812674479	11.232346865554	65.790397348903
0.014334801977853	10.633228261254	66.922071294497
0.014462791281226	10.458293362063	68.711559910573
0.014590780584600	11.053761152932	70.670519182796
0.014718769887974	12.305679947493	72.202861565206
0.014846759191347	13.697067303286	72.973256194811
0.014974748494721	14.617657942041	73.125140773379
0.015102737798095	14.741839942817	73.207901782532
0.015230727101468	14.242025894267	73.848930709540
0.015358716404842	13.699182052937	75.365936469120
0.015486705708216	13.755699886913	77.558695740350
0.015614695011589	14.717541048941	79.816272663287
0.015742684314963	16.351582055022	81.484474484794
0.015870673618337	18.011761257053	82.274391528193
0.015998662921711	19.028108622120	82.458975949340
0.016126652225084	19.126520310745	82.726672770719
0.016254641528458	18.618665649957	83.769422417153
0.016382630831832	18.233844120395	85.851040674278
0.016510620135205	18.682313412703	88.624692731288
0.016638609438579	20.210980989060	91.324653534012
0.016766598741953	22.428924902970	93.229724873958
0.016894588045326	24.524761248932	94.121345715875
0.017022577348700	25.759082691513	94.449403612353
0.017150566652074	25.937538374160	95.087085992242
0.017278555955447	25.567084364192	96.806892123322
0.017406545258821	25.580261858512	99.791363662121
0.017534534562195	26.776355508324	103.48766601550
0.017662523865568	29.314103479517	106.91752335301
0.017790513168942	32.578219416511	109.27531820344
0.017918502472316	35.527513131789	110.45618683358
0.018046491775690	37.337184961626	111.17690065644
0.018174481079063	37.950700125514	112.58549039438
0.018302470382437	38.186748154538	115.56958183812
0.018430459685811	39.300883532631	120.17816283530
0.018558448989184	42.237142023216	125.53168355793
0.018686438292558	47.019170173220	130.31768630560
0.018814427595932	52.680355887989	133.60810398446
0.018942416899305	57.827851787917	135.50801744458
0.019070406202679	61.544204832599	137.20635876252
0.019198395506053	64.088188543321	140.33467408725
0.019326384809426	66.927967052530	145.96785099536
0.019454374112800	72.011770959194	153.86416839040
0.019582363416174	80.655005085040	162.46039988663
0.019710352719547	92.716760634974	169.72260164588
0.019838342022921	106.65071166502	174.42017651462
0.019966331326295	120.55093274661	177.05057443977
0.020094320629668	133.70359734888	179.72578530730
0.020222309933042	147.74507904539	184.84727483695
0.020350299236416	166.58447094763	193.09991924090
0.020478288539790	194.80537506729	201.80770604669
0.020606277843163	235.07077636407	204.69920224246
0.020734267146537	285.70156294164	193.56064282947
0.020862256449911	339.71510792917	161.34712874269
0.020990245753284	386.07565635281	105.51901920186
0.021118235056658	412.93492767752	30.095279824953
0.021246224360032	411.68325812911	-54.648649866610
0.021374213663405	380.16308887114	-134.93043263342
0.021502202966779	323.67068767136	-197.67148455639
0.021630192270153	253.28479494989	-234.51720109826
0.021758181573526	182.19520630654	-244.08450388436
0.021886170876900	121.53268478184	-231.62790147923
0.022014160180274	77.345796819357	-206.42612989546
0.022142149483647	49.784586213519	-178.11955882560
0.022270138787021	34.537000474919	-153.55721499588
0.022398128090395	25.612200466104	-135.32728487229
0.022526117393768	18.108152985666	-122.27665911565
0.022654106697142	9.8069816203504	-111.41754004791
0.022782096000516	1.1482163491405	-100.09982777966
0.022910085303890	-6.0513721065238	-87.399474370272
0.023038074607263	-10.237480740147	-74.231027574011
0.023166063910637	-11.210686006171	-62.404750836441
0.023294053214011	-10.203969659294	-53.342342937077
0.023422042517384	-9.0879559353899	-47.220262888722
0.023550031820758	-9.2914278945769	-42.955791596231
0.023678021124132	-11.093245384624	-38.926770529168
0.023806010427505	-13.645372835971	-33.921987566277
0.023933999730879	-15.630209333615	-27.752199091878
0.024061989034253	-16.107349271175	-21.210017953031
0.024189978337626	-15.045647802548	-15.471133887727
0.024317967641000	-13.268319846449	-11.338442173807
0.024445956944374	-11.901894270552	-8.7805404328896
0.024573946247747	-11.696129036345	-7.0036300155134
0.024701935551121	-12.622498980638	-4.9662178222717
0.024829924854495	-13.961504633948	-1.9977946151953
0.024957914157868	-14.787359987311	1.8488702937761
0.025085903461242	-14.534756785993	5.8968443573083
0.025213892764616	-13.309312935585	9.3026676314944
0.025341882067990	-11.778827828579	11.577110314452
0.025469871371363	-10.739884687946	12.858411561951
0.025597860674737	-10.637997395745	13.794676925602
0.025725849978111	-11.327522379129	15.131624653093
0.025853839281484	-12.197241131725	17.268755543985
0.025981828584858	-12.563837700777	20.048435921001
0.026109817888232	-12.083649265191	22.888169227886
0.026237807191605	-10.937696119058	25.156797233552
0.026365796494979	-9.6938091009721	26.557099242512
0.026493785798353	-8.9464540653840	27.287409569260
0.026621775101726	-8.9608048524510	27.898830958928
0.026749764405100	-9.5324189894920	28.949816322564
0.026877753708474	-10.134334893234	30.674603131648
0.027005743011847	-10.248817634034	32.862181239621
0.027133732315221	-9.6765700988887	35.007016947826
0.027261721618595	-8.6402351277640	36.627929259338
0.027389710921968	-7.6306726058162	37.556585503111
0.027517700225342	-7.1002788166721	38.024930599455
0.027645689528716	-7.1937857035875	38.508949482021
0.027773678832090	-7.6756287781848	39.433527993694
0.027901668135463	-8.0882749998726	40.921231171732
0.028029657438837	-8.0364064810734	42.733276633799
0.028157646742211	-7.4213463412033	44.429518522177
0.028285636045584	-6.4875614479246	45.642150713181
0.028413625348958	-5.6614306328191	46.294358560958
0.028541614652332	-5.2876119486632	46.635240923992
0.028669603955705	-5.4252558133344	47.077675656346
0.028797593259079	-5.8238179725468	47.944365928664
0.028925582562453	-6.0857880961706	49.278072834896
0.029053571865826	-5.9113244978346	50.827372566240
0.029181561169200	-5.2747787974242	52.209676301993
0.029309550472574	-4.4297253650501	53.146855865346
0.029437539775947	-3.7459366821588	53.629221541644
0.029565529079321	-3.4824907754785	53.911997137528
0.029693518382695	-3.6357066836966	54.352544863954
0.029821507686068	-3.9506209150053	55.191943202622
0.029949496989442	-4.0832815729986	56.414242304673
0.030077486292816	-3.8109462657610	57.765325860287
0.030205475596190	-3.1620603256669	58.914501886188
0.030333464899563	-2.3905389673939	59.656698332166
0.030461454202937	-1.8150901457066	60.032184332442
0.030589443506311	-1.6248173397582	60.294485080651
0.030717432809684	-1.7692821790837	60.750810450070
0.030845422113058	-1.9965021953324	61.575261754209
0.030973411416432	-2.0112387674663	62.708232167727
0.031101400719805	-1.6543706919270	63.899888656903
0.031229390023179	-0.99457613209564	64.867008582383
0.031357379326553	-0.27976946953896	65.465106458333
0.031485368629926	0.21812699587832	65.771593333551
0.031613357933300	0.36822776816923	66.032511125018
0.031741347236674	0.25569555066352	66.509058990503
0.031869336540047	0.12413197454410	67.319473249927
0.031997325843421	0.22399772419819	68.371808969084
0.032125315146795	0.66126915786824	69.425553915267
0.032253304450168	1.3376791496990	70.241185176901
0.032381293753542	2.0160194397120	70.724878862223
0.032509283056916	2.4675586765643	70.981128525471
0.032637272360290	2.6102634355055	71.244054701825
0.032765261663663	2.5545881136473	71.732232906351
0.032893250967037	2.5316908135426	72.516820106778
0.033021240270411	2.7506181026490	73.482293094606
0.033149229573784	3.2726537861160	74.401043617958
0.033277218877158	3.9783112180459	75.073729651833
0.033405208180532	4.6444854662260	75.448820815569
0.033533197483905	5.0822574154167	75.649607539060
0.033661186787279	5.2504657797346	75.894722805536
0.033789176090653	5.2769829328846	76.362947407055
0.033917165394026	5.3771508593039	77.085462472586
0.034045154697400	5.7212727419182	77.930027179419
0.034173144000774	6.3325636698535	78.684369076973
0.034301133304147	7.0765295255613	79.185898568828
0.034429122607521	7.7459496995859	79.418140655551
0.034557111910895	8.1877063330549	79.516347418979
0.034685101214268	8.3936808867820	79.681087685926
0.034813090517642	8.5015364111696	80.054321751803
0.034941079821016	8.7070160209466	80.633885574940
0.035069069124390	9.1428999024957	81.277289751890
0.035197058427763	9.7986633414972	81.790505557589
0.035325047731137	10.528540034325	82.046076781183
0.035453037034511	11.141097178983	82.058426573104
0.035581026337884	11.514252937895	81.971787996959
0.035709015641258	11.665546081407	81.970096872444
0.035837004944632	11.736156055442	82.165225119653
0.035964994248005	11.900346323818	82.531784281815
0.036092983551379	12.256931572735	82.926999097257
0.036220972854753	12.769031156307	83.181753997653
0.036348962158126	13.287685730772	83.206071332806
0.036476951461500	13.643334558107	83.044726337638
0.036604940764874	13.748360577601	82.850258309684
0.036732930068247	13.648382107028	82.791358545965
0.036860919371621	13.492306228918	82.953380253916
0.036988908674995	13.440978844304	83.291297847286
0.037116897978368	13.571029232350	83.662409658263
0.037244887281742	13.832216588027	83.917201278451
0.037372876585116	14.082933426731	83.992004127504
0.037500865888490	14.180623901664	83.947178817828
0.037628855191863	14.071049184838	83.928754080106
0.037756844495237	13.822165335863	84.078339219320
0.037884833798611	13.583062692891	84.447025922968
0.038012823101984	13.494269099990	84.965492225555
0.038140812405358	13.604722426397	85.487421404519
0.038268801708732	13.845616692232	85.878552118690
0.038396791012105	14.075877357058	86.096533053452
0.038524780315479	14.170305848657	86.213382395344
0.038652769618853	14.096117630182	86.368082020411
0.038780758922226	13.931681408603	86.679445776160
0.038908748225600	13.817212154573	87.172920354968
0.039036737528974	13.868650692545	87.765503720534
0.039164726832347	14.107715280396	88.316866554148
0.039292716135721	14.450310379238	88.714431506368
0.039420705439095	14.759281323779	88.940147131983
0.039548694742468	14.928338935762	89.078757412545
0.039676684045842	14.945661341311	89.263605923770
0.039804673349216	14.898945152872	89.593997937420
0.039932662652590	14.919903848503	90.074794109591
0.040060651955963	15.103001789757	90.614506146079
0.040188641259337	15.448231167679	91.082004414135
0.040316630562711	15.862258883447	91.386362472571
0.040444619866084	16.216226002136	91.530941218132
0.040572609169458	16.424113365668	91.609312708534
0.040700598472832	16.493725934778	91.746503448735
0.040828587776205	16.519804066607	92.022181606616
0.040956577079579	16.624438447139	92.422748333796
0.041084566382953	16.881879049517	92.850937390255
0.041212555686326	17.273675411779	93.186114787991
0.041340544989700	17.700886274055	93.357792668547
0.041468534293074	18.044983277446	93.387476600427
0.041596523596447	18.239635753490	93.373951957544
0.041724512899821	18.309583314857	93.431887898585
0.041852502203195	18.353521668445	93.621833135979
0.041980491506568	18.482319936500	93.914280805222
0.042108480809942	18.750840775393	94.209082769568
0.042236470113316	19.124898381547	94.397518593117
0.042364459416690	19.502867240422	94.428613291893
0.042492448720063	19.777933234072	94.339335319047
0.042620438023437	19.902507344436	94.230901712820
0.042748427326811	19.915622288539	94.206450273474
0.042876416630184	19.917250158239	94.308573725731
0.043004405933558	20.005991019042	94.494686556039
0.043132395236932	20.218586014232	94.664605131723
0.043260384540305	20.507998876881	94.722761964050
0.043388373843679	20.772796230885	94.636696781182
0.043516363147053	20.919178927100	94.456323106170
0.043644352450426	20.917456527317	94.282858079368
0.043772341753800	20.818720341904	94.207071862973
0.043900331057174	20.722188106549	94.254863520103
0.044028320360547	20.713826069498	94.373138875205
0.044156309663921	20.814004852107	94.463965345747
0.044284298967295	20.965885165308	94.445506750632
0.044412288270668	21.070990812204	94.302279705807
0.044540277574042	21.049638337288	94.094323138885
0.044668266877416	20.889108580922	93.920305587711
0.044796256180790	20.650445651612	93.857677390148
0.044924245484163	20.430353799673	93.916594634729
0.045052234787537	20.302019206652	94.035430448577
0.045180224090911	20.271153039053	94.119993982779
0.045308213394284	20.273768965892	94.101965692390
0.045436202697658	20.216443350448	93.980723761687
0.045564192001032	20.033956715112	93.823352488808
0.045692181304405	19.729001122538	93.723418873876
0.045820170607779	19.370047963127	93.744175206637
0.045948159911153	19.049258269428	93.880956366223
0.046076149214526	18.826596667098	94.065375650419
0.046204138517900	18.694335580642	94.208180315925
0.046332127821274	18.583255048654	94.254154763785
0.046460117124647	18.406181990907	94.215500789568
0.046588106428021	18.111857133195	94.163683514865
0.046716095731395	17.716207120231	94.185277008128
0.046844085034768	17.292298330672	94.329171102132
0.046972074338142	16.925644339755	94.577383663405
0.047100063641516	16.662529160663	94.856921674999
0.047228052944890	16.482883885423	95.084921738415
0.047356042248263	16.313889160585	95.219155608996
0.047484031551637	16.075477488011	95.283096780302
0.047612020855011	15.729616197148	95.350636290129
0.047740010158384	15.303326242820	95.500289509314
0.047867999461758	14.871774158602	95.767171518612
0.047995988765132	14.512253813898	96.122003022650
0.048123978068505	14.257448926302	96.489573098971
0.048251967371879	14.076433402466	96.794908297766
0.048379956675253	13.894613592043	97.008687877002
0.048507945978626	13.639969428929	97.164273374716
0.048635935282000	13.287108141554	97.336355316868
0.048763924585374	12.872342976913	97.594711262356
0.048891913888747	12.470990296836	97.961545490895
0.049019903192121	12.151189170059	98.398336172331
0.049147892495495	11.932656838076	98.829823430675
0.049275881798868	11.775428314518	99.190065396590
0.049403871102242	11.605058731047	99.462245517685
0.049531860405616	11.358487848724	99.688074719775
0.049659849708990	11.022385275181	99.941445113650
0.049787839012363	10.640724644322	100.28282244399
0.049915828315737	10.287358338658	100.72238592157
0.050043817619111	10.020725676658	101.21425111009
0.050171806922484	9.8484939990284	101.68491066518
