#Parameters = {D=150; H2=0.25608951349787; H3=2.1700707044174; L=16.48322852882; Lsmall=2.6595912857348; M=16.725; R=13.938500543364; RFfinger=2.987; TL=137.75; a=11.373; angle=11; beam_x=0; beam_y=0; bunchcharge=3.52e-08; bunchlength=38.219806352981; c1=11; c2=7.7; cpw=500; elecharge=1.6e-19; f=11.16404595735; int_x=0; int_y=0; mx=0.001; s=0.1; wakelength=10000}
#"Frequency / GHz"	"Z [Real/Imaginary Part] [Re]"	"Z [Real/Imaginary Part] [Im]"
#-------------------------------------------------------------------------------
0.0000000000000	0.011314727709977	1.4415176357155e-11
0.0026790152140831	0.010681767692468	-0.0016682362541603
0.0053580304281663	0.0088961610694775	-0.0028382312946187
0.0080370456422494	0.0062726720685692	-0.0031136767807492
0.010716060856333	0.0032584211210106	-0.0022784961634370
0.013395076070416	0.00033624569511822	-0.00033371815054781
0.016074091284499	-0.0020765102695787	0.0025146851128674
0.018753106498582	-0.0037102304566190	0.0059126945072791
0.021432121712665	-0.0044879380329235	0.0094449617770951
0.024111136926748	-0.0045241364307068	0.012729771750143
0.026790152140831	-0.0040802970434218	0.015499546068744
0.029469167354914	-0.0034900981668530	0.017648728530708
0.032148182568998	-0.0030742280142612	0.019239772388436
0.034827197783081	-0.0030660215596268	0.020468755702126
0.037506212997164	-0.0035652410412903	0.021602049858699
0.040185228211247	-0.0045291787327903	0.022901961262194
0.042864243425330	-0.0058002418810730	0.024560840580523
0.045543258639413	-0.0071599577102592	0.026659638748082
0.048222273853496	-0.0083932707090824	0.029159457989157
0.050901289067580	-0.0093455160206007	0.031925452550928
0.053580304281663	-0.0099576831664488	0.034773996393757
0.056259319495746	-0.010272411762572	0.037528548691306
0.058938334709829	-0.010411556800530	0.040068407876515
0.061617349923912	-0.010533778600291	0.042357637455509
0.064296365137995	-0.010785437391083	0.044447781520061
0.066975380352078	-0.011258956046125	0.046455649828658
0.069654395566161	-0.011969746946391	0.048524265103085
0.072333410780245	-0.012856857240773	0.050779201709887
0.075012425994328	-0.013805484730586	0.053293014949348
0.077691441208411	-0.014683466177975	0.056067344348055
0.080370456422494	-0.015380381136020	0.059036649577728
0.083049471636577	-0.015837875054063	0.062091127675288
0.085728486850660	-0.016063007432532	0.065111020466458
0.088407502064743	-0.016121789003378	0.068001709126363
0.091086517278826	-0.016115944125903	0.070719375062874
0.093765532492910	-0.016150614221335	0.073280306096599
0.096444547706993	-0.016302923269596	0.075752047217022
0.099123562921076	-0.016600546891055	0.078229970026802
0.10180257813516	-0.017016034825568	0.080806899620093
0.10448159334924	-0.017477741295077	0.083545078441402
0.10716060856333	-0.017893311371769	0.086458602211785
0.10983962377741	-0.018178182504436	0.089510995807042
0.11251863899149	-0.018280441957291	0.092627924171889
0.11519765420557	-0.018194854225073	0.095720574714992
0.11787666941966	-0.017962392606114	0.098712299737167
0.12055568463374	-0.017656055296899	0.10156047062923
0.12323469984782	-0.017357772606457	0.10426725992659
0.12591371506191	-0.017133649864342	0.10687661435214
0.12859273027599	-0.017014985416917	0.10945889354548
0.13127174549007	-0.016990486090384	0.11208825492708
0.13395076070416	-0.017011556222481	0.11481982205648
0.13662977591824	-0.017008569505584	0.11767346514735
0.13930879113232	-0.016912837621852	0.12062879100216
0.14198780634641	-0.016677486412848	0.12363242234643
0.14466682156049	-0.016291024995963	0.12661493528514
0.14734583677457	-0.015779801281823	0.12951202966846
0.15002485198866	-0.015198997702099	0.13228343098035
0.15270386720274	-0.014615265865151	0.13492392623766
0.15538288241682	-0.014086500606113	0.13746348415249
0.15806189763090	-0.013644929344292	0.13995678618791
0.16074091284499	-0.013288495710514	0.14246566376458
0.16341992805907	-0.012982864813611	0.14503995615544
0.16609894327315	-0.012673110875662	0.14770260473303
0.16877795848724	-0.012301264238881	0.15044334478464
0.17145697370132	-0.011824247265439	0.15322263539115
0.17413598891540	-0.011226775124730	0.15598433511696
0.17681500412949	-0.010525474383518	0.15867303940858
0.17949401934357	-0.0097632288013009	0.16125070801348
0.18217303455765	-0.0089957382987733	0.16370757766609
0.18485204977174	-0.0082745719560910	0.16606422023364
0.18753106498582	-0.0076319368940401	0.16836436691114
0.19021008019990	-0.0070717250992925	0.17066091920986
0.19288909541399	-0.0065693810822933	0.17299956240123
0.19556811062807	-0.0060803991591786	0.17540500628338
0.19824712584215	-0.0055546534132348	0.17787395355805
0.20092614105623	-0.0049520692642236	0.18037675576049
0.20360515627032	-0.0042548518400017	0.18286703731008
0.20628417148440	-0.0034726472361559	0.18529617259845
0.20896318669848	-0.0026392420811949	0.18762810626958
0.21164220191257	-0.0018020049631136	0.18985001076236
0.21432121712665	-0.0010074456161312	0.19197564361076
0.21700023234073	-0.00028736684714479	0.19404055412983
0.21967924755482	0.00035019812657069	0.19609078154719
0.22235826276890	0.00092261726415195	0.19816862494846
0.22503727798298	0.0014665294452551	0.20029987474053
0.22771629319707	0.0020259860155842	0.20248635522153
0.23039530841115	0.0026385938724926	0.20470593123562
0.23307432362523	0.0033239175477504	0.20691981796206
0.23575333883932	0.0040776216177310	0.20908481655494
0.23843235405340	0.0048730173888786	0.21116665008756
0.24111136926748	0.0056693921286021	0.21315031790915
0.24379038448157	0.0064244485656584	0.21504437581531
0.24646939969565	0.0071069850245073	0.21687795907391
0.24914841490973	0.0077059493255524	0.21869159710112
0.25182743012381	0.0082331783201589	0.22052473804530
0.25450644533790	0.0087191088241867	0.22240384744615
0.25718546055198	0.0092028996157049	0.22433469739363
0.25986447576606	0.0097200797191973	0.22630111884848
0.26254349098015	0.010291534577703	0.22827047893863
0.26522250619423	0.010917164869295	0.23020409103975
0.26790152140831	0.011576068845673	0.23206929411071
0.27058053662240	0.012233077685005	0.23384948659748
0.27325955183648	0.012849539276077	0.23554908872348
0.27593856705056	0.013394986525072	0.23719200578216
0.27861758226465	0.013856113734707	0.23881417163595
0.28129659747873	0.014240365940433	0.24045254784509
0.28397561269281	0.014573134535945	0.24213399589524
0.28665462790690	0.014889520233044	0.24386742270265
0.28933364312098	0.015223267045841	0.24564154543099
0.29201265833506	0.015596292984481	0.24742886868263
0.29469167354914	0.016012006847518	0.24919456094254
0.29737068876323	0.016454394558116	0.25090744151504
0.30004970397731	0.016893065761290	0.25254968756994
0.30272871919139	0.017292627805946	0.25412231349415
0.30540773440548	0.017623456702480	0.25564481070767
0.30808674961956	0.017870551324462	0.25714914438816
0.31076576483364	0.018037791541044	0.25867002522132
0.31344478004773	0.018146364613055	0.26023448500147
0.31612379526181	0.018227924605911	0.26185395429679
0.31880281047589	0.018314651862004	0.26352123012769
0.32148182568998	0.018429297124243	0.26521319294125
0.32416084090406	0.018578256929052	0.26689836205612
0.32683985611814	0.018749758113826	0.26854691133076
0.32951887133223	0.018917638366531	0.27014004636318
0.33219788654631	0.019049491232331	0.27167588122278
0.33487690176039	0.019116624846318	0.27317006151063
0.33755591697447	0.019102761908116	0.27465101106395
0.34023493218856	0.019008833247384	0.27615132659531
0.34291394740264	0.018852446727627	0.27769800417092
0.34559296261672	0.018662261048227	0.27930450521892
0.34827197783081	0.018469051004042	0.28096706914177
0.35095099304489	0.018296241792814	0.28266634974006
0.35363000825897	0.018152818751517	0.28437380930153
0.35630902347306	0.018030756465517	0.28606085397388
0.35898803868714	0.017907701485703	0.28770787839751
0.36166705390122	0.017754024983338	0.28931044865390
0.36434606911531	0.017542033208026	0.29088076145476
0.36702508432939	0.017254487911199	0.29244398615533
0.36970409954347	0.016889832671101	0.29403066860425
0.37238311475756	0.016462559742418	0.29566756942170
0.37506212997164	0.015998658724610	0.29736976275811
0.37774114518572	0.015527596416358	0.29913640421778
0.38042016039980	0.015073324787114	0.30095142576599
0.38309917561389	0.014647085129667	0.30278889151053
0.38577819082797	0.014244196377346	0.30462132209068
0.38845720604205	0.013845770974276	0.30642840293356
0.39113622125614	0.013424780862559	0.30820340075027
0.39381523647022	0.012954567989195	0.30995534293285
0.39649425168430	0.012417163320939	0.31170633379261
0.39917326689839	0.011808863537291	0.31348487955109
0.40185228211247	0.011141381111553	0.31531730969620
0.40453129732655	0.010438258035968	0.31721994583856
0.40721031254064	0.0097276896221722	0.31919441413147
0.40988932775472	0.0090339953278577	0.32122750975014
0.41256834296880	0.0083703674998172	0.32329561168464
0.41524735818289	0.0077351120327212	0.32537224966211
0.41792637339697	0.0071125026437798	0.32743647055172
0.42060538861105	0.0064779440302005	0.32947942781611
0.42328440382513	0.0058058192360299	0.33150718644759
0.42596341903922	0.0050775870982221	0.33353891569454
0.42864243425330	0.0042876404771416	0.33560106528767
0.43132144946738	0.0034451453830691	0.33771934889967
0.43400046468147	0.0025713307218051	0.33991101606549
0.43667947989555	0.0016931000314291	0.34217978388610
0.43935849510963	0.00083495876218342	0.34451496281017
0.44203751032372	1.1751256596656e-05	0.34689500970015
0.44471652553780	-0.00077556787842656	0.34929437952515
0.44739554075188	-0.0015398537725526	0.35169154299238
0.45007455596597	-0.0023034424989091	0.35407569658879
0.45275357118005	-0.0030909382602503	0.35645011316745
0.45543258639413	-0.0039213566371538	0.35883112980693
0.45811160160822	-0.0048020442260945	0.36124311821156
0.46079061682230	-0.0057262302369409	0.36371101486966
0.46346963203638	-0.0066749350819701	0.36625272602915
0.46614864725046	-0.0076226162849368	0.36887374339255
0.46882766246455	-0.0085447879068445	0.37156560928388
0.47150667767863	-0.0094252561597933	0.37430867445388
0.47418569289271	-0.010260749272234	0.37707826871782
0.47686470810680	-0.011061537051732	0.37985236174008
0.47954372332088	-0.011847878839546	0.38261834697312
0.48222273853496	-0.012643422510425	0.38537686830983
0.48490175374905	-0.013467606894657	0.38814153317818
0.48758076896313	-0.014329412160968	0.39093462904974
0.49025978417721	-0.015224371883134	0.39378018880707
0.49293879939130	-0.016135744114500	0.39669655672503
0.49561781460538	-0.017039453292493	0.39969074589376
0.49829682981946	-0.017911257288015	0.40275631143966
0.50097584503355	-0.018733919529134	0.40587537075535
0.50365486024763	-0.019502179120523	0.40902412177970
0.50633387546171	-0.020224003810833	0.41218013814617
0.50901289067580	-0.020917764342555	0.41532918424124
0.51169190588988	-0.021606226315576	0.41846945531825
0.51437092110396	-0.022309229637156	0.42161195355874
0.51704993631804	-0.023037317997029	0.42477690845787
0.51972895153213	-0.023788274415879	0.42798736824841
0.52240796674621	-0.024547612287303	0.43126195320099
0.52508698196029	-0.025292847097262	0.43460900771279
0.52776599717438	-0.026000210863746	0.43802394403801
0.53044501238846	-0.026651726985458	0.44149057705737
0.53312402760254	-0.027240464352122	0.44498601565636
0.53580304281663	-0.027772362982810	0.44848758333884
0.53848205803071	-0.028264088750295	0.45197962438084
0.54116107324479	-0.028737601110711	0.45545809924936
0.54384008845888	-0.029213126608410	0.45893156588954
0.54651910367296	-0.029702712728989	0.46241826487067
0.54919811888704	-0.030206345877018	0.46594022852743
0.55187713410113	-0.030711816246171	0.46951624636647
0.55455614931521	-0.031198351155294	0.47315586164535
0.55723516452929	-0.031642876729928	0.47685624458715
0.55991417974337	-0.032026963603047	0.48060289118250
0.56259319495746	-0.032342311601178	0.48437391216273
0.56527221017154	-0.032593089966179	0.48814657101465
0.56795122538562	-0.032794427920147	0.49190404329746
0.57063024059971	-0.032967541153229	0.49564031160168
0.57330925581379	-0.033133014911614	0.49936169602134
0.57598827102787	-0.033304325363837	0.50308456530395
0.57866728624196	-0.033483597104912	0.50682995431984
0.58134630145604	-0.033660894948817	0.51061676441340
0.58402531667012	-0.033817251305123	0.51445565232062
0.58670433188421	-0.033930476674928	0.51834549071275
0.58938334709829	-0.033981946381379	0.52227348075632
0.59206236231237	-0.033962263859529	0.52621886470929
0.59474137752646	-0.033874057487139	0.53015907546684
0.59742039274054	-0.033731061045762	0.53407641299032
0.60009940795462	-0.033553779375194	0.53796318367882
0.60277842316870	-0.033363093976910	0.54182372287998
0.60545743838279	-0.033173793444962	0.54567269061665
0.60813645359687	-0.032990027871131	0.54953018460735
0.61081546881095	-0.032804082998568	0.55341519554949
0.61349448402504	-0.032598837884487	0.55733943511909
0.61617349923912	-0.032353129832340	0.56130344301881
0.61885251445320	-0.032048355101911	0.56529616663240
0.62153152966729	-0.031674259103853	0.56929812812335
0.62421054488137	-0.031232129191582	0.57328718409193
0.62688956009545	-0.030734414036688	0.57724508540924
0.62956857530954	-0.030200902977551	0.58116280495868
0.63224759052362	-0.029652662361434	0.58504299074551
0.63492660573770	-0.029105614897261	0.58889879817713
0.63760562095179	-0.028565750651911	0.59274947898438
0.64028463616587	-0.028027445027538	0.59661410663452
0.64296365137995	-0.027475391052205	0.60050538935738
0.64564266659403	-0.026889531994587	0.60442548680033
0.64832168180812	-0.026251453487093	0.60836511794740
0.65100069702220	-0.025550248385762	0.61230622308179
0.65367971223628	-0.024786038945975	0.61622734018932
0.65635872745037	-0.023970074252462	0.62011001819405
0.65903774266445	-0.023121386908568	0.62394427462041
0.66171675787853	-0.022261060062946	0.62773140947389
0.66439577309262	-0.021405892982271	0.63148331385445
0.66707478830670	-0.020563433004209	0.63521850281433
0.66975380352078	-0.019729909951101	0.63895611779730
0.67243281873487	-0.018891701997016	0.64270976956850
0.67511183394895	-0.018029862774707	0.64648313488314
0.67779084916303	-0.017126290237132	0.65026866797202
0.68046986437712	-0.016169612939903	0.65404981469817
0.68314887959120	-0.015158964527535	0.65780602678764
0.68582789480528	-0.014104480872929	0.66151900529863
0.68850691001936	-0.013024378375157	0.66517822588351
0.69118592523345	-0.011939536614938	0.66878402916932
0.69386494044753	-0.010867282308740	0.67234732412839
0.69654395566161	-0.0098163141180650	0.67588601099067
0.69922297087570	-0.0087843452251628	0.67941925235036
0.70190198608978	-0.0077591873690901	0.68296138808801
0.70458100130386	-0.0067229236656830	0.68651739445212
0.70726001651795	-0.0056578544958727	0.69008129886607
0.70993903173203	-0.0045523514766770	0.69363803382244
0.71261804694611	-0.0034047896661475	0.69716813663857
0.71529706216020	-0.0022243353957442	0.70065381377779
0.71797607737428	-0.0010283552841357	0.70408446629529
0.72065509258836	0.00016272903263374	0.70745994794764
0.72333410780245	0.0013315179791700	0.71079054366471
0.72601312301653	0.0024687332309744	0.71409368796863
0.72869213823061	0.0035757421078949	0.71738846630665
0.73137115344470	0.0046637239861008	0.72068963583829
0.73405016865878	0.0057497538713459	0.72400304844829
0.73672918387286	0.0068510480824568	0.72732391223038
0.73940819908694	0.0079791930429123	0.73063842947109
0.74208721430103	0.0091361791764296	0.73392828257917
0.74476622951511	0.010313487724566	0.73717654096405
0.74744524472919	0.011494510294993	0.74037311528600
0.75012425994328	0.012659525039491	0.74351803209720
0.75280327515736	0.013791643729422	0.74662149564391
0.75548229037144	0.014881837499909	0.74970072519255
0.75816130558553	0.015931443677134	0.75277458194510
0.76084032079961	0.016951359414613	0.75585770346143
0.76351933601369	0.017958185432891	0.75895602070073
0.76619835122778	0.018968558654825	0.76206509155704
0.76887736644186	0.019993494209445	0.76517178375472
0.77155638165594	0.021034557382198	0.76825876530354
0.77423539687003	0.022083101560287	0.77131035576997
0.77691441208411	0.023122823110974	0.77431784786813
0.77959342729819	0.024134812385751	0.77728257224905
0.78227244251227	0.025103466263567	0.78021570115121
0.78495145772636	0.026021336945753	0.78313484061887
0.78763047294044	0.026891323672160	0.78605850880453
0.79030948815452	0.027725468498379	0.78900029967362
0.79298850336861	0.028540723734641	0.79196465450628
0.79566751858269	0.029353060679297	0.79494565900816
0.79834653379677	0.030171858102852	0.79792930545903
0.80102554901086	0.030996450183931	0.80089851796496
0.80370456422494	0.031816033006483	0.80383930506297
0.80638357943902	0.032613034859202	0.80674598926006
0.80906259465311	0.033368897264157	0.80962371781932
0.81174160986719	0.034070370666004	0.81248731905109
0.81442062508127	0.034714189449645	0.81535676950284
0.81709964029536	0.035308456067963	0.81825069527967
0.81977865550944	0.035870107477701	0.82118006095217
0.82245767072352	0.036419138715836	0.82414424252604
0.82513668593760	0.036971400401699	0.82713099068741
0.82781570115169	0.037532384612942	0.83012055799235
0.83049471636577	0.038094241113406	0.83309286540938
0.83317373157985	0.038637335994082	0.83603546895552
0.83585274679394	0.039136235700959	0.83894963741644
0.83853176200802	0.039568504369895	0.84185225550647
0.84121077722210	0.039923620343090	0.84477244885210
0.84388979243619	0.040209024040470	0.84774346095904
0.84656880765027	0.040450952010085	0.85079190841639
0.84924782286435	0.040689153336131	0.85392759196792
0.85192683807844	0.040966429194295	0.85713718021996
0.85460585329252	0.041315639939339	0.86038420284681
0.85728486850660	0.041747853423491	0.86361609156055
0.85996388372069	0.042245304730900	0.86677695179545
0.86264289893477	0.042761735088360	0.86982293225517
0.86532191414885	0.043230736919844	0.87273604011134
0.86800092936293	0.043580477105151	0.87553237533970
0.87067994457702	0.043751244841129	0.87826205540430
0.87335895979110	0.043711250798048	0.88100025491748
0.87603797500518	0.043466327815093	0.88383121394869
0.87871699021927	0.043060640183016	0.88682908988749
0.88139600543335	0.042567832248476	0.89004055034720
0.88407502064743	0.042074610158166	0.89347370497103
0.88675403586152	0.041660838663929	0.89709639720978
0.88943305107560	0.041381250664350	0.90084443321804
0.89211206628968	0.041253504667280	0.90463767923066
0.89479108150377	0.041255663609293	0.90839984567314
0.89747009671785	0.041333654987652	0.91207679041835
0.90014911193193	0.041416600051883	0.91564859778655
0.90282812714602	0.041435811940225	0.91913241100252
0.90550714236010	0.041342340501772	0.92257553420471
0.90818615757418	0.041118438006500	0.92604096463811
0.91086517278826	0.040780086405875	0.92958952635054
0.91354418800235	0.040370255637401	0.93326359617134
0.91622320321643	0.039945133079708	0.93707682532954
0.91890221843051	0.039557450548000	0.94101245219856
0.92158123364460	0.039241714063000	0.94503030586521
0.92426024885868	0.039005441866086	0.94908013921689
0.92693926407276	0.038828664681931	0.95311720670527
0.92961827928685	0.038671494200718	0.95711549557250
0.93229729450093	0.038487239815386	0.96107485034893
0.93497630971501	0.038237020977831	0.96502012916902
0.93765532492910	0.037901511779266	0.96899292111030
0.94033434014318	0.037486429662899	0.97303852702164
0.94301335535726	0.037020327576556	0.97719222922150
0.94569237057135	0.036545574103482	0.98146897644690
0.94837138578543	0.036105413950579	0.98585948507079
0.95105040099951	0.035731102491263	0.99033376447267
0.95372941621359	0.035432992907452	0.99485082357388
0.95640843142768	0.035198180172029	0.99937148347153
0.95908744664176	0.034995274955973	1.0038703483847
0.96176646185584	0.034784714894127	1.0083433188370
0.96444547706993	0.034531373726248	1.0128084474072
0.96712449228401	0.034215588483598	1.0172999946342
0.96980350749809	0.033839269137079	1.0218576102551
0.97248252271218	0.033425302405076	1.0265140177374
0.97516153792626	0.033010529580695	1.0312849865903
0.97784055314034	0.032634533480963	1.0361646275336
0.98051956835443	0.032327719749778	1.0411273819713
