#Parameters = {Conductivity=10300000; D=150; DB=207.5; H2=0.96193241373866; H3=7.785354235727; L=13.14968808334; Lmesh=2; Lsmall=2.429563941838; M=16.725; PipeL=42; R=3.5491552309493; RFfinger=2.987; TL=137.75; a=11.373; angle=43.2; bunchcharge=3.52e-08; bunchlength=38.219806352981; c1=11; c2=7.7; cpw=120; elecharge=1.6e-19; f=8.2905601996637; facerefinement=2; mincell=25; s=1; sB=1; wakelength=50000; xDip=0; xInt=0; yDip=0; yInt=0}
#"Frequency / GHz"	"Z [Real/Imaginary Part] [Re]"	"Z [Real/Imaginary Part] [Im]"
#-------------------------------------------------------------------------------
0.0000000000000	-0.010997923124275	1.0027636875551e-11
0.0026790152140831	0.029473102376723	0.030784535336143
0.0053580304281663	0.036056155359383	-0.0014788691768341
0.0080370456422494	0.019579115408188	0.0059034233587128
0.010716060856333	0.020533003149342	0.0033132034870909
0.013395076070416	0.0046525166593397	0.0082557476065678
0.016074091284499	0.0023376656634191	0.016380905779060
0.018753106498582	-0.0095997719350103	0.021874810989867
0.021432121712665	-0.013778721143742	0.035073915566185
0.024111136926748	-0.021021162090359	0.041853100106696
0.026790152140831	-0.026350535933015	0.056492230589056
0.029469167354914	-0.029752394580426	0.065016482119990
0.032148182568998	-0.035496960981502	0.078981586698635
0.034827197783081	-0.036546148142978	0.089463906558031
0.037506212997164	-0.041836863526136	0.10188835325717
0.040185228211247	-0.042026833663142	0.11410866361188
0.042864243425330	-0.046091445801108	0.12505783886677
0.045543258639413	-0.046529094674619	0.13837872471289
0.048222273853496	-0.048949918414740	0.14848246473794
0.050901289067580	-0.050162761101940	0.16205732895818
0.053580304281663	-0.050998273504000	0.17212144636995
0.056259319495746	-0.052939380608950	0.18518037168384
0.058938334709829	-0.052663015556420	0.19585004689432
0.061617349923912	-0.054883723519266	0.20793795171092
0.064296365137995	-0.054181064361322	0.21949013263862
0.066975380352078	-0.056095924985563	0.23057269286254
0.069654395566161	-0.055608104569784	0.24287593961153
0.072333410780245	-0.056757245165930	0.25328714872487
0.075012425994328	-0.056869161441625	0.26591755821749
0.077691441208411	-0.057088656855596	0.27618421950987
0.080370456422494	-0.057833531871515	0.28863241958953
0.083049471636577	-0.057288267721737	0.29925164498976
0.085728486850660	-0.058391095095631	0.31113452540119
0.088407502064743	-0.057476019071054	0.32239066308611
0.091086517278826	-0.058504633389920	0.33358857796894
0.093765532492910	-0.057667530483199	0.34547250344746
0.096444547706993	-0.058223584800405	0.35614876551211
0.099123562921076	-0.057785722190810	0.36839834120975
0.10180257813516	-0.057659807711000	0.37890623349562
0.10448159334924	-0.057703840680207	0.39113996844231
0.10716060856333	-0.056939218591725	0.40186482831325
0.10983962377741	-0.057300844840049	0.41374763388452
0.11251863899149	-0.056150692751251	0.42495124617649
0.11519765420557	-0.056507821058552	0.43632493967071
0.11787666941966	-0.055312959796475	0.44805278933125
0.12055568463374	-0.055328988833019	0.45898362538526
0.12323469984782	-0.054371319108439	0.47106636864769
0.12591371506191	-0.053830760370032	0.48179793944587
0.12859273027599	-0.053222955072727	0.49393771637881
0.13127174549007	-0.052107038656454	0.50477619638537
0.13395076070416	-0.051759440487088	0.51667701196193
0.13662977591824	-0.050236105117913	0.52786021303478
0.13930879113232	-0.049907738991410	0.53934643922117
0.14198780634641	-0.048247102376130	0.55095018743307
0.14466682156049	-0.047654119736667	0.56202676201407
0.14734583677457	-0.046109083102672	0.57394353774365
0.15002485198866	-0.045042817923192	0.58477807298340
0.15270386720274	-0.043745375692233	0.59677145648278
0.15538288241682	-0.042151534162298	0.60761082095070
0.15806189763090	-0.041066041564679	0.61941840075750
0.16074091284499	-0.039055519184365	0.63047842932708
0.16341992805907	-0.038003926794800	0.64191790535454
0.16609894327315	-0.035795728115954	0.65329286407731
0.16877795848724	-0.034539876156837	0.66432823462378
0.17145697370132	-0.032363592383613	0.67595582945847
0.17413598891540	-0.030707211885604	0.68669901316765
0.17681500412949	-0.028707651313736	0.69839161391122
0.17949401934357	-0.026575370140515	0.70904301697249
0.18217303455765	-0.024758142743705	0.72056855305036
0.18485204977174	-0.022220343657118	0.73132446517778
0.18753106498582	-0.020458513957289	0.74250089810890
0.19021008019990	-0.017694843459169	0.75346782911648
0.19288909541399	-0.015790458069348	0.76423138202975
0.19556811062807	-0.013010708077127	0.77538235947027
0.19824712584215	-0.010782689397379	0.78580306287379
0.20092614105623	-0.0081399411338784	0.79699157748768
0.20360515627032	-0.0055006725824734	0.80723263440327
0.20628417148440	-0.0030328505403691	0.81825539030508
0.20896318669848	-2.2537625436217e-05	0.82849593740500
0.21164220191257	0.0023547221102810	0.83917619712812
0.21432121712665	0.0055882658727971	0.84953144774971
0.21700023234073	0.0080370268259086	0.85978717657101
0.21967924755482	0.011301853499417	0.87025939866224
0.22235826276890	0.013986897621328	0.88012891284052
0.22503727798298	0.017125387630931	0.89060776825354
0.22771629319707	0.020141025948789	0.90022415846438
0.23039530841115	0.023089913279796	0.91053440792349
0.23307432362523	0.026419354409816	0.92006188789362
0.23575333883932	0.029227252747031	0.93003614637854
0.23843235405340	0.032749752247958	0.93959658562306
0.24111136926748	0.035546839894884	0.94914187206441
0.24379038448157	0.039087611945753	0.95876255773527
0.24646939969565	0.042022229958598	0.96789318745610
0.24914841490973	0.045422471745002	0.97749663675921
0.25182743012381	0.048592348320805	0.98632123430037
0.25450644533790	0.051769398323506	0.99575983290567
0.25718546055198	0.055176788186264	1.0044297221243
0.25986447576606	0.058149608459258	1.0135485760348
0.26254349098015	0.061697848220327	1.0221907877690
0.26522250619423	0.064568600525485	1.0308916871843
0.26790152140831	0.068100189083150	1.0395553112937
0.27058053662240	0.071001474899888	1.0478347371130
0.27325955183648	0.074359886873395	1.0564724822639
0.27593856705056	0.077391029517188	1.0644190030960
0.27861758226465	0.080479724388044	1.0729103990033
0.28129659747873	0.083659213405026	1.0806638730331
0.28397561269281	0.086473017968577	1.0888689632407
0.28665462790690	0.089726686321120	1.0965602870938
0.28933364312098	0.092343596072608	1.1043799555983
0.29201265833506	0.095531997861042	1.1120772580273
0.29469167354914	0.098070259594639	1.1194948554056
0.29737068876323	0.10104256818656	1.1271784804974
0.30004970397731	0.10360224259448	1.1342658387030
0.30272871919139	0.10625314615775	1.1418417544442
0.30540773440548	0.10886740167861	1.1487281908691
0.30808674961956	0.11117283191085	1.1560727906247
0.31076576483364	0.11378910087842	1.1628916292813
0.31344478004773	0.11580679742084	1.1699080855926
0.31612379526181	0.11830482492969	1.1767436285740
0.31880281047589	0.12014036609751	1.1834056697923
0.32148182568998	0.12237840527694	1.1902632408911
0.32416084090406	0.12413243742007	1.1966282549942
0.32683985611814	0.12600116394365	1.2034389842768
0.32951887133223	0.12772058041198	1.2096260464366
0.33219788654631	0.12918198147599	1.2162832957569
0.33487690176039	0.13083545434839	1.2224263028034
0.33755591697447	0.13193070572798	1.2288375760483
0.34023493218856	0.13341842838475	1.2350340071593
0.34291394740264	0.13424235782248	1.2411657204683
0.34559296261672	0.13543469417103	1.2474428457546
0.34827197783081	0.13608873505583	1.2533394128320
0.35095099304489	0.13687674460731	1.2596515854645
0.35363000825897	0.13742081204233	1.2654214589529
0.35630902347306	0.13775704470867	1.2716788222673
0.35898803868714	0.13818087010720	1.2774542267943
0.36166705390122	0.13809340161465	1.2835695959904
0.36434606911531	0.13831867335788	1.2894578067732
0.36702508432939	0.13789338264459	1.2953916642024
0.36970409954347	0.13780524832416	1.3014384543176
0.37238311475756	0.13714455625116	1.3072228340532
0.37506212997164	0.13663826389547	1.3134033377977
0.37774114518572	0.13581457503697	1.3191350776864
0.38042016039980	0.13483710837335	1.3253750595269
0.38309917561389	0.13386072726279	1.3311821790368
0.38577819082797	0.13243019695953	1.3373999462482
0.38845720604205	0.13124498334318	1.3433957401749
0.39113622125614	0.12943982399561	1.3495463991720
0.39381523647022	0.12794781109646	1.3557912888368
0.39649425168430	0.12587142956560	1.3618943776112
0.39917326689839	0.12397509837715	1.3683812412644
0.40185228211247	0.12171150101103	1.3745206063147
0.40453129732655	0.11935558477259	1.3811891268590
0.40721031254064	0.11693486805071	1.3874855656482
0.40988932775472	0.11412989776936	1.3942589674079
0.41256834296880	0.11151820754804	1.4008278640566
0.41524735818289	0.10833622211174	1.4076557089866
0.41792637339697	0.10545373785701	1.4145680254365
0.42060538861105	0.10199876971394	1.4214568094700
0.42328440382513	0.098757464930440	1.4287197053322
0.42596341903922	0.095123786739364	1.4357385326896
0.42864243425330	0.091468558058697	1.4433034071146
0.43132144946738	0.087704708758676	1.4505627576365
0.43400046468147	0.083640214354128	1.4583566350644
0.43667947989555	0.079733958764058	1.4659699683071
0.43935849510963	0.075326334880933	1.4739362958644
0.44203751032372	0.071216396649038	1.4819808079749
0.44471652553780	0.066569315779655	1.4901122091053
0.44739554075188	0.062178482938463	1.4986057315684
0.45007455596597	0.057394612320074	1.5069547027329
0.45275357118005	0.052669405245571	1.5158578275710
0.45543258639413	0.047813636730930	1.5245215708846
0.45811160160822	0.042753863660344	1.5337637591462
0.46079061682230	0.037834070977392	1.5428497734674
0.46346963203638	0.032499636700819	1.5523676482647
0.46614864725046	0.027472615425763	1.5619552562719
0.46882766246455	0.021965292158420	1.5717266174317
0.47150667767863	0.016764882397344	1.5818406814239
0.47418569289271	0.011193150462214	1.5918998129208
0.47686470810680	0.0057681511376585	1.6025076302714
0.47954372332088	0.00021047192025416	1.6129356426355
0.48222273853496	-0.0054441045935520	1.6239677150340
0.48490175374905	-0.010962100600996	1.6348625950940
0.48758076896313	-0.016793506073185	1.6462480404505
0.49025978417721	-0.022298455099006	1.6576873735281
0.49293879939130	-0.028209089294518	1.6693885663277
0.49561781460538	-0.033756696031876	1.6814009849541
0.49829682981946	-0.039635406128320	1.6934326741959
0.50097584503355	-0.045274950922816	1.7059898818128
0.50365486024763	-0.051033229382276	1.7184149176078
0.50633387546171	-0.056775140165604	1.7314473368217
0.50901289067580	-0.062372749812201	1.7443512026068
0.51169190588988	-0.068173042829666	1.7577801343919
0.51437092110396	-0.073622382087275	1.7712354646657
0.51704993631804	-0.079390385799885	1.7850077109339
0.51972895153213	-0.084738214319754	1.7990441147716
0.52240796674621	-0.090363854259903	1.8131542983063
0.52508698196029	-0.095658595964639	1.8277461364729
0.52776599717438	-0.10104741258583	1.8422374189917
0.53044501238846	-0.10630624129644	1.8573144424167
0.53312402760254	-0.11140717742536	1.8722576606646
0.53580304281663	-0.11659698897590	1.8877336326015
0.53848205803071	-0.12141123494160	1.9031940976201
0.54116107324479	-0.12645145114453	1.9190008480716
0.54384008845888	-0.13101898886543	1.9350071658624
0.54651910367296	-0.13580469024724	1.9511194782593
0.54919811888704	-0.14017473332097	1.9676476386150
0.55187713410113	-0.14460998398116	1.9840885752175
0.55455614931521	-0.14880816910791	2.0010678024175
0.55723516452929	-0.15283531086364	2.0178924632395
0.55991417974337	-0.15684177735910	2.0352300976219
0.56259319495746	-0.16045422401900	2.0524951038684
0.56527221017154	-0.16420181721029	2.0701095010198
0.56795122538562	-0.16743534696582	2.0878414484716
0.57063024059971	-0.17082848136315	2.1056888884528
0.57330925581379	-0.17373503447249	2.1238652991305
0.57598827102787	-0.17668084840220	2.1419494743818
0.57866728624196	-0.17929638465780	2.1605000955029
0.58134630145604	-0.18173491335793	2.1788604620394
0.58402531667012	-0.18405515880983	2.1976882187426
0.58670433188421	-0.18597562261201	2.2163725040129
0.58938334709829	-0.18795001425045	2.2353848313039
0.59206236231237	-0.18938659807823	2.2544177166133
0.59474137752646	-0.19093278087672	2.2735548285622
0.59742039274054	-0.19194206249855	2.2929162412561
0.60009940795462	-0.19297453307331	2.3121644063018
0.60277842316870	-0.19360444242351	2.3317865955675
0.60545743838279	-0.19406499035726	2.3511709377290
0.60813645359687	-0.19432880534025	2.3709554004664
0.61081546881095	-0.19420575937512	2.3905157381428
0.61349448402504	-0.19407210756499	2.4103625310938
0.61617349923912	-0.19340039261208	2.4301227428102
0.61885251445320	-0.19280348084404	2.4499595705622
0.62153152966729	-0.19164578091108	2.4699038661823
0.62421054488137	-0.19051106789790	2.4897026403761
0.62688956009545	-0.18892837021202	2.5097686105281
0.62956857530954	-0.18720282798376	2.5295425924638
0.63224759052362	-0.18522713758374	2.5496341486446
0.63492660573770	-0.18290086972018	2.5694172374592
0.63760562095179	-0.18052176725061	2.5894314907518
0.64028463616587	-0.17763207403510	2.6092488751937
0.64296365137995	-0.17480259165474	2.6291054837363
0.64564266659403	-0.17141896248256	2.6489482368319
0.64832168180812	-0.16807819719117	2.6686087808311
0.65100069702220	-0.16427480653007	2.6884234266155
0.65367971223628	-0.16037729311104	2.7078926374189
0.65635872745037	-0.15620501754518	2.7275899528973
0.65903774266445	-0.15174429633517	2.7468986766167
0.66171675787853	-0.14721413463842	2.7663778474511
0.66439577309262	-0.14223051386651	2.7855552764731
0.66707478830670	-0.13731537093143	2.8047329972954
0.66975380352078	-0.13188475177333	2.8237802383566
0.67243281873487	-0.12653862507971	2.8426123867189
0.67511183394895	-0.12074730024792	2.8614887702213
0.67779084916303	-0.11493340594117	2.8799754549070
0.68046986437712	-0.10884989102638	2.8986033310269
0.68314887959120	-0.10256562182899	2.9167756128426
0.68582789480528	-0.096221374389345	2.9350614872565
0.68850691001936	-0.089509414841023	2.9529555639917
0.69118592523345	-0.082896691749003	2.9708184397979
0.69386494044753	-0.075837654037508	2.9884486568282
0.69654395566161	-0.068925127152833	3.0058434727325
0.69922297087570	-0.061615007121350	3.0231857594794
0.70190198608978	-0.054374227701313	3.0401120294005
0.70458100130386	-0.046896442131274	3.0571048062010
0.70726001651795	-0.039327666719716	3.0735970142609
0.70993903173203	-0.031731617820665	3.0901590543573
0.71261804694611	-0.023877935255845	3.1062631735008
0.71529706216020	-0.016173143312730	3.1223207295716
0.71797607737428	-0.0081168524953724	3.1380671455912
0.72065509258836	-0.00028487456318279	3.1535786413536
0.72333410780245	0.0078721499046330	3.1689630655820
0.72601312301653	0.015853238648355	3.1839309707467
0.72869213823061	0.024016815515099	3.1989116407211
0.73137115344470	0.032146229304448	3.2133765224549
0.73405016865878	0.040252993510939	3.2278886020613
0.73672918387286	0.048490469793041	3.2419082646747
0.73940819908694	0.056517239000976	3.2558893128574
0.74208721430103	0.064782988664159	3.2695119878879
0.74476622951511	0.072738452720703	3.2829274549884
0.74744524472919	0.080929741338688	3.2961707300254
0.75012425994328	0.088832401129975	3.3090286195356
0.75280327515736	0.096849602523085	3.3218730138884
0.75548229037144	0.10470156866215	3.3342215758961
0.75816130558553	0.11247255602624	3.3466214307211
0.76084032079961	0.12024056576993	3.3585310782009
0.76351933601369	0.12773318402113	3.3704379798532
0.76619835122778	0.13534504699226	3.3819752337424
0.76887736644186	0.14256243937377	3.3933637769616
0.77155638165594	0.14992033353501	3.4045685778457
0.77423539687003	0.15688149788596	3.4154534858500
0.77691441208411	0.16388644120643	3.4263294416077
0.77959342729819	0.17060048884361	3.4367667334915
0.78227244251227	0.17717747527613	3.4472884168093
0.78495145772636	0.18362282338320	3.4573603048503
0.78763047294044	0.18973605310864	3.4674942689139
0.79030948815452	0.19585348909804	3.4772842532614
0.79298850336861	0.20150524150610	3.4870146588377
0.79566751858269	0.20720786349689	3.4965836581507
0.79834653379677	0.21242187033984	3.5059314086309
0.80102554901086	0.21761755130297	3.5153049646982
0.80370456422494	0.22241410647818	3.5243322316909
0.80638357943902	0.22703094333301	3.5335042148616
0.80906259465311	0.23140464756082	3.5423023935324
0.81174160986719	0.23540849172863	3.5512533627175
0.81442062508127	0.23931816821000	3.5599197572024
0.81709964029536	0.24271496567755	3.5686420119427
0.81977865550944	0.24609017268113	3.5772551625307
0.82245767072352	0.24891221939275	3.5857734924371
0.82513668593760	0.25167338168861	3.5943777562088
0.82781570115169	0.25395572679937	3.6027570871977
0.83049471636577	0.25603935383862	3.6113627554395
0.83317373157985	0.25779643923846	3.6196993469610
0.83585274679394	0.25917462801732	3.6282981960890
0.83853176200802	0.26038737431084	3.6366981831935
0.84121077722210	0.26107333007493	3.6452874768384
0.84388979243619	0.26169211773015	3.6538419671206
0.84656880765027	0.26172952621984	3.6624464919384
0.84924782286435	0.26169174415559	3.6712137530828
0.85192683807844	0.26113266618737	3.6798963479988
0.85460585329252	0.26038724775954	3.6888985930968
0.85728486850660	0.25926816919511	3.6977546406386
0.85996388372069	0.25779662665125	3.7069905168505
0.86264289893477	0.25612290539771	3.7161286945432
0.86532191414885	0.25394785012860	3.7255959697882
0.86800092936293	0.25169327539602	3.7351135114758
0.87067994457702	0.24887088694725	3.7448319543046
0.87335895979110	0.24599237491464	3.7547949345838
0.87603797500518	0.24259217316501	3.7648194972720
0.87871699021927	0.23905320577793	3.7752564065000
0.88139600543335	0.23513386354843	3.7856750382132
0.88407502064743	0.23092665073561	3.7965861700755
0.88675403586152	0.22651817492597	3.8075030266588
0.88943305107560	0.22167485242959	3.8188815036271
0.89211206628968	0.21677481267625	3.8303929102337
0.89479108150377	0.21136311093534	3.8422479962477
0.89747009671785	0.20594824548372	3.8544212078778
0.90014911193193	0.20005341596986	3.8667939506933
0.90282812714602	0.19410167052818	3.8796577203587
0.90550714236010	0.18780241785958	3.8926219900404
0.90818615757418	0.18131573467615	3.9061728791067
0.91086517278826	0.17466455294509	3.9198213947523
0.91354418800235	0.16768259842926	3.9340427999554
0.91622320321643	0.16069874620965	3.9484641036442
0.91890221843051	0.15329767877924	3.9633497311705
0.92158123364460	0.14597569894785	3.9786058982193
0.92426024885868	0.13825247154754	3.9941774563718
0.92693926407276	0.13058240301436	4.0102920182011
0.92961827928685	0.12263133388798	4.0266034821685
0.93229729450093	0.11462177563186	4.0435645694261
0.93497630971501	0.10651334749335	4.0606911905572
0.93765532492910	0.098207390721218	4.0784684025902
0.94033434014318	0.089978265784381	4.0964851312536
0.94301335535726	0.081455334645279	4.1150527260140
0.94569237057135	0.073113672659255	4.1340113257602
0.94837138578543	0.064476467986254	4.1533676811396
0.95105040099951	0.056020032160605	4.1732822590892
0.95372941621359	0.047372089192499	4.1934572728446
0.95640843142768	0.038811249413092	4.2143043707581
0.95908744664176	0.030234687755934	4.2353515553422
0.96176646185584	0.021610217481098	4.2570845838260
0.96444547706993	0.013152990768756	4.2790613345433
0.96712449228401	0.0045409248957945	4.3016331788032
0.96980350749809	-0.0037810137745718	4.3245777192789
0.97248252271218	-0.012279595883986	4.3479616158468
0.97516153792626	-0.020466502860960	4.3718764574013
0.97784055314034	-0.028746533533968	4.3960763148209
0.98051956835443	-0.036792344637303	4.4209253600861
0.98319858356851	-0.044767678621819	4.4459710886907
0.98587759878259	-0.052640594267293	4.4716915323707
0.98855661399668	-0.060259116145927	4.4976214128243
0.99123562921076	-0.067893894321709	4.5241453074334
0.99391464442484	-0.075138527585798	4.5509832335577
0.99659365963893	-0.082443662809152	4.5782594802628
0.99927267485301	-0.089319027710742	4.6059966497083
1.0019516900671	-0.096196081075813	4.6340039923087
1.0046307052812	-0.10270676188865	4.6625931762602
