#Parameters = {Conductivity=10300000; D=63; DB=122.5; H2=0.95790214733708; H3=7.7563673489908; L=13.181238189694; Lmesh=2; Lsmall=2.4317762705896; M=16.725; PipeL=42; R=3.5656629296979; RFfinger=3; TL=137.75; a=11.373; angle=43; blocks=20; bunchcharge=3.52e-08; bunchlength=38.219806352981; c1=11; c2=7.7; cpw=175; elecharge=1.6e-19; f=8.3176856485148; facerefinement=2; mincell=25; s=1; sB=1; wakelength=10000; xDip=0; xInt=0; yDip=0; yInt=0}
#"Frequency / GHz"	"Z [Real/Imaginary Part] [Re]"	"Z [Real/Imaginary Part] [Im]"
#-------------------------------------------------------------------------------
0.0000000000000	0.030727373025880	-1.3929603286989e-11
0.0026790152140831	0.029541184410074	0.011667077226945
0.0053580304281663	0.026219311237776	0.024333590342966
0.0080370456422494	0.021416249699714	0.038779628975406
0.010716060856333	0.016051676214264	0.055400374101930
0.013395076070416	0.011099390693249	0.074134097980691
0.016074091284499	0.0073706755135639	0.094499281174681
0.018753106498582	0.0053452345510791	0.11572848179024
0.021432121712665	0.0050893779647565	0.13696243221071
0.024111136926748	0.0062776424156916	0.15745377744224
0.026790152140831	0.0083070450599053	0.17672940991277
0.029469167354914	0.010469938437210	0.19467325345022
0.032148182568998	0.012138042370176	0.21151375151930
0.034827197783081	0.012909921301997	0.22772589873853
0.037506212997164	0.012686537354406	0.24387942714003
0.040185228211247	0.011660685255074	0.26047700134876
0.042864243425330	0.010229976679092	0.27782608771694
0.045543258639413	0.0088629585457149	0.29597616831254
0.048222273853496	0.0079586513346618	0.31473303191601
0.050901289067580	0.0077387889253811	0.33373989055632
0.053580304281663	0.0082002131861883	0.35259725116032
0.056259319495746	0.0091360995758668	0.37098457830741
0.058938334709829	0.010214616872203	0.38874884157783
0.061617349923912	0.011088007717613	0.40593687848966
0.064296365137995	0.011498126814459	0.42276622185344
0.066975380352078	0.011347717725466	0.43954724260890
0.069654395566161	0.010718668343955	0.45658286944791
0.072333410780245	0.0098352305008470	0.47407712652520
0.075012425994328	0.0089865876454664	0.49207926492386
0.077691441208411	0.0084344153022843	0.51047814296356
0.080370456422494	0.0083341405125762	0.52904568809981
0.083049471636577	0.0086929623728111	0.54751361255296
0.085728486850660	0.0093754376039068	0.56565835802978
0.088407502064743	0.010152526639093	0.58336800287445
0.091086517278826	0.010777020531358	0.60067159123592
0.093765532492910	0.011061040533024	0.61772366870430
0.096444547706993	0.010931754410512	0.63475078030588
0.099123562921076	0.010449132885541	0.65197801472666
0.10180257813516	0.0097818601569168	0.66955903680684
0.10448159334924	0.0091505026022615	0.68753104302988
0.10716060856333	0.0087567492530665	0.70580758989785
0.10983962377741	0.0087211245752380	0.72421010670955
0.11251863899149	0.0090481585538946	0.74252695060531
0.11519765420557	0.0096288660800346	0.76058074573486
0.11787666941966	0.010278526923706	0.77828283144155
0.12055568463374	0.010796898780734	0.79565831623509
0.12323469984782	0.011031447080841	0.81283485374551
0.12591371506191	0.010923823170047	0.82999971312809
0.12859273027599	0.010525595227009	0.84733942434598
0.13127174549007	0.0099791795331035	0.86498129165996
0.13395076070416	0.0094708478016393	0.88295496601864
0.13662977591824	0.0091711938383494	0.90118555151435
0.13930879113232	0.0091819586612478	0.91951961480749
0.14198780634641	0.0095056719825593	0.93777518398853
0.14466682156049	0.010047069362227	0.95579955650321
0.14734583677457	0.010645132081762	0.97351666876738
0.15002485198866	0.011125068726625	0.99094943761018
0.15270386720274	0.011353560412367	1.0082106049636
0.15538288241682	0.011279914898175	1.0254655841161
0.15806189763090	0.010950520267024	1.0428794814688
0.16074091284499	0.010492572893753	1.0605651785799
0.16341992805907	0.010072731850226	1.0785487150672
0.16609894327315	0.0098440891574121	1.0967625135053
0.16877795848724	0.0098982671099954	1.1150680988903
0.17145697370132	0.010237569023867	1.1333007126951
0.17413598891540	0.010775595032855	1.1513214951990
0.17681500412949	0.011365696729763	1.1690607657739
0.17949401934357	0.011847942112108	1.1865389655280
0.18217303455765	0.012099605198336	1.2038590142977
0.18485204977174	0.012073303023162	1.2211728701808
0.18753106498582	0.011810986577254	1.2386331178513
0.19021008019990	0.011429707762878	1.2563449563656
0.19288909541399	0.011083973859350	1.2743336360338
0.19556811062807	0.010916773067235	1.2925373706779
0.19824712584215	0.011014758500197	1.3108276542747
0.20092614105623	0.011381597344235	1.3290503063654
0.20360515627032	0.011937646919325	1.3470741528519
0.20628417148440	0.012545786042262	1.3648319981619
0.20896318669848	0.013055039823043	1.3823411185458
0.21164220191257	0.013348146786600	1.3996970486634
0.21432121712665	0.013378116657554	1.4170428589662
0.21700023234073	0.013182415416828	1.4345237775275
0.21967924755482	0.012870524458372	1.4522415112703
0.22235826276890	0.012588997386705	1.4702225904334
0.22503727798298	0.012475151206036	1.4884105472532
0.22771629319707	0.012613997858969	1.5066841951423
0.23039530841115	0.013011892642591	1.5248960823180
0.23307432362523	0.013595038565042	1.5429189203297
0.23575333883932	0.014233142035711	1.5606853794156
0.23843235405340	0.014780636712117	1.5782088226870
0.24111136926748	0.015122442270296	1.5955786044619
0.24379038448157	0.015209889992808	1.6129315646660
0.24646939969565	0.015075616529576	1.6304087945088
0.24914841490973	0.014822880314595	1.6481113053112
0.25182743012381	0.014592789709327	1.6660684962239
0.25450644533790	0.014519827645831	1.6842292315445
0.25718546055198	0.014689665337035	1.7024782072568
0.25986447576606	0.015112468425437	1.7206723559821
0.26254349098015	0.015719983639028	1.7386857932811
0.26522250619423	0.016387210994520	1.7564491898458
0.26790152140831	0.016971768057584	1.7739712636013
0.27058053662240	0.017358546219939	1.7913357357719
0.27325955183648	0.017495655260036	1.8086748014394
0.27593856705056	0.017410435210525	1.8261275099750
0.27861758226465	0.017200594959697	1.8437961399094
0.28129659747873	0.017003337631822	1.8617142318378
0.28397561269281	0.016952209672047	1.8798362473076
0.28665462790690	0.017135218141432	1.8980520225915
0.28933364312098	0.017567320405497	1.9162214198614
0.29201265833506	0.018185854648784	1.9342182747931
0.29469167354914	0.018870279465762	1.9519698637864
0.29737068876323	0.019479984386583	1.9694795533793
0.30004970397731	0.019898298358378	1.9868255862111
0.30272871919139	0.020068914633867	2.0041364375829
0.30540773440548	0.020013354185604	2.0215505015605
0.30808674961956	0.019824043475101	2.0391727478282
0.31076576483364	0.019635217563569	2.0570419111393
0.31344478004773	0.019580787301805	2.0751184559569
0.31612379526181	0.019752367444967	2.0932970459164
0.31880281047589	0.020170589579405	2.1114395819011
0.32148182568998	0.020778650659498	2.1294184501743
0.32416084090406	0.021460085531932	2.1471564464781
0.32683985611814	0.022075179074848	2.1646508992929
0.32951887133223	0.022504616108795	2.1819744685718
0.33219788654631	0.022686718841075	2.1992523928181
0.33487690176039	0.022636639309684	2.2166233159740
0.33755591697447	0.022441522700813	2.2341959487790
0.34023493218856	0.022233168908876	2.2520151102950
0.34291394740264	0.022146747453445	2.2700477552431
0.34559296261672	0.022278471624136	2.2881933435040
0.34827197783081	0.022655455799505	2.3063153030644
0.35095099304489	0.023227169102864	2.3242837515448
0.35363000825897	0.023881151026780	2.3420161290521
0.35630902347306	0.024478077838214	2.3595030508424
0.35898803868714	0.024895227311907	2.3768113054965
0.36166705390122	0.025064768171801	2.3940630606754
0.36434606911531	0.024994916388608	2.4113977665254
0.36702508432939	0.024767348136862	2.4289286487704
0.36970409954347	0.024511669843343	2.4467073743417
0.37238311475756	0.024364907332836	2.4647079247386
0.37506212997164	0.024428654473440	2.4828347207744
0.37774114518572	0.024737257257907	2.5009524755496
0.38042016039980	0.025246971712974	2.5189284703600
0.38309917561389	0.025849494436389	2.5366740664045
0.38577819082797	0.026405661456204	2.5541724953623
0.38845720604205	0.026788815237616	2.5714842441206
0.39113622125614	0.026924315101995	2.5887283329014
0.39381523647022	0.026812858147091	2.6060453054287
0.39649425168430	0.026530317075195	2.6235534602375
0.39917326689839	0.026204119631517	2.6413119718635
0.40185228211247	0.025973511655194	2.6593024157585
0.40453129732655	0.025946080700654	2.6774344832773
0.40721031254064	0.026164097988796	2.6955741352485
0.40988932775472	0.026591191155434	2.7135854425372
0.41256834296880	0.027123533698498	2.7313730823073
0.41524735818289	0.027622097552513	2.7489122365008
0.41792637339697	0.027955942465103	2.7662565484221
0.42060538861105	0.028043059737078	2.7835216209622
0.42328440382513	0.027876029646567	2.8008491618026
0.42596341903922	0.027524466096978	2.8183629226796
0.42864243425330	0.027113445288462	2.8361301563992
0.43132144946738	0.026784600356736	2.8541406186938
0.43400046468147	0.026651978969987	2.8723096942563
0.43667947989555	0.026766415243905	2.8905047188103
0.43935849510963	0.027099539330114	2.9085863375759
0.44203751032372	0.027552449080381	2.9264520384716
0.44471652553780	0.027986392230824	2.9440682952048
0.44739554075188	0.028265942984011	2.9614812774080
0.45007455596597	0.028301243620351	2.9788027429415
0.45275357118005	0.028076144505564	2.9961754535184
0.45543258639413	0.027653441010730	3.0137288444772
0.45811160160822	0.027155522140956	3.0315387399330
0.46079061682230	0.026726402396021	3.0496036755669
0.46346963203638	0.026486922083919	3.0678452465810
0.46614864725046	0.026497057412973	3.0861324315303
0.46882766246455	0.026737100609409	3.1043223739564
0.47150667767863	0.027113621369308	3.1223049587490
0.47418569289271	0.027488416922046	3.1400373064567
0.47686470810680	0.027721493295130	3.1575574135600
0.47954372332088	0.027714727124442	3.1749726337397
0.48222273853496	0.027442610188154	3.1924265191956
0.48490175374905	0.026960465086122	3.2100542896211
0.48758076896313	0.026387509928414	3.2279407658093
0.49025978417721	0.025869974454451	3.2460938756596
0.49293879939130	0.025535696139874	3.2644420282303
0.49561781460538	0.025454310202738	3.2828562434534
0.49829682981946	0.025615446502454	3.3011902200089
0.50097584503355	0.025931776446892	3.3193259190944
0.50365486024763	0.026266036935024	3.3372104877569
0.50633387546171	0.026473691448997	3.3548729989252
0.50901289067580	0.026447995229202	3.3724157332029
0.51169190588988	0.026153442326124	3.3899826359494
0.51437092110396	0.025637144948254	3.4077146960526
0.51704993631804	0.025014531266166	3.4257060942859
0.51972895153213	0.024433729524395	3.4439747738488
0.52240796674621	0.024029653916548	3.4624566411570
0.52508698196029	0.023882048667116	3.4810252808453
0.52776599717438	0.023990562020712	3.4995311349838
0.53044501238846	0.024274665860782	3.5178480191676
0.53312402760254	0.024598531531790	3.5359125241414
0.53580304281663	0.024813207203461	3.5537440161823
0.53848205803071	0.024803032264494	3.5714389440187
0.54116107324479	0.024521860487816	3.5891411325955
0.54384008845888	0.024007783900191	3.6069972211874
0.54651910367296	0.023371698114536	3.6251110577234
0.54919811888704	0.022763171392230	3.6435112353119
0.55187713410113	0.022324152957044	3.6621419196404
0.55455614931521	0.022144877482046	3.6808799074067
0.55723516452929	0.022235692228660	3.6995727069310
0.55991417974337	0.022523631215938	3.7180858735732
0.56259319495746	0.022874896153461	3.7363449098925
0.56527221017154	0.023136350179358	3.7543586757313
0.56795122538562	0.023183190712000	3.7722169547838
0.57063024059971	0.022957996761553	3.7900628338668
0.57330925581379	0.022488971514744	3.8080483870875
0.57598827102787	0.021881623830195	3.8262873822580
0.57866728624196	0.021286369837225	3.8448197067171
0.58134630145604	0.020852033872397	3.8635986233246
0.58402531667012	0.020679652490968	3.8825049122348
0.58670433188421	0.020790948772131	3.9013836100879
0.58938334709829	0.021121340503667	3.9200920144437
0.59206236231237	0.021539757546536	3.9385440724895
0.59474137752646	0.021889217426391	3.9567373363579
0.59742039274054	0.022035629282512	3.9747540306883
0.60009940795462	0.021909686103307	3.9927357915370
0.60277842316870	0.021528790726969	4.0108398192501
0.60545743838279	0.020992113323944	4.0291899985297
0.60813645359687	0.020450201515996	4.0478381608359
0.61081546881095	0.020058480938389	4.0667475760504
0.61349448402504	0.019929031749721	4.0858039021422
0.61617349923912	0.020095624541545	4.1048503090453
0.61885251445320	0.020502942675578	4.1237359646136
0.62153152966729	0.021023448109302	4.1423628700953
0.62421054488137	0.021496771023752	4.1607164796424
0.62688956009545	0.021779480502614	4.1788705140006
0.62956857530954	0.021789813210211	4.1969643561876
0.63224759052362	0.021533435075267	4.2151599308325
0.63492660573770	0.021102142865119	4.2335913758103
0.63760562095179	0.020645785290185	4.2523231148432
0.64028463616587	0.020326006721181	4.2713294000246
0.64296365137995	0.020266104454029	4.2905017812352
0.64564266659403	0.020512563760340	4.3096823111798
0.64832168180812	0.021020278221770	4.3287122878943
0.65100069702220	0.021666159134724	4.3474814614734
0.65367971223628	0.022287038980483	4.3659624172076
0.65635872745037	0.022730206592494	4.3842193813271
0.65903774266445	0.022900932138878	4.4023885915331
0.66171675787853	0.022792201165843	4.4206361952744
0.66439577309262	0.022487333763378	4.4391066486347
0.66707478830670	0.022134543942882	4.4578776018725
0.66975380352078	0.021901206701368	4.4769353193739
0.67243281873487	0.021921941496724	4.4961783706769
0.67511183394895	0.022256610171797	4.5154485847085
0.67779084916303	0.022871326124237	4.5345797857220
0.68046986437712	0.023648487900877	4.5534492596449
0.68314887959120	0.024422864663369	4.5720159774149
0.68582789480528	0.025032654508618	4.5903336362732
0.68850691001936	0.025369731169601	4.6085343421262
0.69118592523345	0.025413468023945	4.6267878537230
0.69386494044753	0.025237550696518	4.6452489239646
0.69654395566161	0.024987525194438	4.6640090333414
0.69922297087570	0.024835905505520	4.6830675287535
0.70190198608978	0.024928668129862	4.7023312307303
0.70458100130386	0.025339706144590	4.7216427775598
0.70726001651795	0.026047428425721	4.7408290524282
0.70993903173203	0.026940885837939	4.7597547589638
0.71261804694611	0.027853675631979	4.7783645349534
0.71529706216020	0.028615240887249	4.7967004670503
0.71797607737428	0.029103726760997	4.8148894390467
0.72065509258836	0.029283989360447	4.8331040836598
0.72333410780245	0.029218877058110	4.8515093231542
0.72601312301653	0.029050139874011	4.8702110213755
0.72869213823061	0.028954732765800	4.8892227013598
0.73137115344470	0.029089948305418	4.9084607585405
0.73405016865878	0.029544353472567	4.9277698085683
0.73672918387286	0.030309793948106	4.9469704625430
0.73940819908694	0.031283270945894	4.9659148190883
0.74208721430103	0.032298269817049	4.9845324882877
0.74476622951511	0.033175975219290	5.0028528089851
0.74744524472919	0.033780583131364	5.0209962331388
0.75012425994328	0.034061562791129	5.0391373831851
0.75280327515736	0.034069678959856	5.0574510942363
0.75548229037144	0.033941657129371	5.0760580957056
0.75816130558553	0.033858078445770	5.0949871899418
0.76084032079961	0.033987424594544	5.1141657579910
0.76351933601369	0.034433562267239	5.1334416964682
0.76619835122778	0.035202984772950	5.1526301524501
0.76887736644186	0.036202087455939	5.1715706911641
0.77155638165594	0.037265490622210	5.1901772141630
0.77423539687003	0.038206795153368	5.2084650969801
0.77691441208411	0.038876147323475	5.2265469974074
0.77959342729819	0.039206789410834	5.2445984587719
0.78227244251227	0.039236090471524	5.2628038105573
0.78495145772636	0.039094388189823	5.2812990404019
0.78763047294044	0.038964921822999	5.3001293445495
0.79030948815452	0.039027123153884	5.3192346094066
0.79298850336861	0.039400763891426	5.3384674864438
0.79566751858269	0.040108290507849	5.3576386381712
0.79834653379677	0.041067133133439	5.3765752742038
0.80102554901086	0.042114543868179	5.3951748962912
0.80370456422494	0.043057444645998	5.4134375559875
0.80638357943902	0.043731965985336	5.4314664997565
0.80906259465311	0.044054267098681	5.4494368242942
0.81174160986719	0.044046829604599	5.4675416838022
0.81442062508127	0.043831935963064	5.4859326053470
0.81709964029536	0.043594174822524	5.5046723866837
0.81977865550944	0.043523430870733	5.5237152499457
0.82245767072352	0.043755931326499	5.5429205518253
0.82513668593760	0.044331619064989	5.5620959780935
0.82781570115169	0.045181157239948	5.5810569839351
0.83049471636577	0.046146751076520	5.5996841315789
0.83317373157985	0.047030505142730	5.6179605306032
0.83585274679394	0.047655458600023	5.6359776635967
0.83853176200802	0.047920427726644	5.6539076257852
0.84121077722210	0.047831604959934	5.6719502184740
0.84388979243619	0.047500984799036	5.6902711860355
0.84656880765027	0.047111929349472	5.7089507244008
0.84924782286435	0.046862389331375	5.7279583063537
0.85192683807844	0.046903293311438	5.7471617881095
0.85460585329252	0.047291218579200	5.7663681617910
0.85728486850660	0.047970133082462	5.7853834747806
0.85996388372069	0.048788056295409	5.8040734094981
0.86264289893477	0.049543675764659	5.8224056997452
0.86532191414885	0.050048620069734	5.8404610854942
0.86800092936293	0.050186135249642	5.8584091973134
0.87067994457702	0.049947905320376	5.8764566324833
0.87335895979110	0.049437427181550	5.8947831700404
0.87603797500518	0.048838661531870	5.9134858616018
0.87871699021927	0.048359456941392	5.9325484212151
0.88139600543335	0.048167142281980	5.9518455993894
0.88407502064743	0.048336233188723	5.9711814303387
0.88675403586152	0.048824574510563	5.9903497179346
0.88943305107560	0.049485526670871	6.0091981425570
0.89211206628968	0.050112669843173	6.0276761184349
0.89479108150377	0.050503384510253	6.0458514359856
0.89747009671785	0.050521715551113	6.0638903054034
0.90014911193193	0.050141013747221	6.0820067350009
0.90282812714602	0.049452987129282	6.1003967314129
0.90550714236010	0.048640121443752	6.1191776234302
0.90818615757418	0.047919769291993	6.1383513616772
0.91086517278826	0.047477050818559	6.1578033400038
0.91354418800235	0.047407295793099	6.1773373477873
0.91622320321643	0.047685939767112	6.1967360625030
0.91890221843051	0.048175396138778	6.2158285001738
0.92158123364460	0.048667025722687	6.2345435573592
0.92426024885868	0.048945430371188	6.2529329488477
0.92693926407276	0.048855288812731	6.2711562205643
0.92961827928685	0.048350030271319	6.2894322257120
0.93229729450093	0.047507131682496	6.3079718795179
0.93497630971501	0.046505068561937	6.3269129127496
0.93765532492910	0.045568804004860	6.3462768653178
0.94033434014318	0.044900500788091	6.3659618041012
0.94301335535726	0.044616836055904	6.3857732659588
0.94569237057135	0.044712396782980	6.4054840938559
0.94837138578543	0.045060681847944	6.4249048135158
0.95105040099951	0.045452657209506	6.4439428052624
0.95372941621359	0.045661169085645	6.4626318506218
0.95640843142768	0.045511424344846	6.4811226907924
0.95908744664176	0.044935731046128	6.4996372557332
0.96176646185584	0.043995421586043	6.5184005022805
0.96444547706993	0.042862936283462	6.5375708361129
0.96712449228401	0.041769346139686	6.5571906755969
0.96980350749809	0.040933342663860	6.5771726206551
0.97248252271218	0.040493577782121	6.5973257601303
0.97516153792626	0.040465349632054	6.6174142410283
0.97784055314034	0.040735229120787	6.6372301686808
0.98051956835443	0.041095556432250	6.6566583406353
0.98319858356851	0.041308392316556	6.6757126920212
0.98587759878259	0.041179307100164	6.6945329581358
0.98855661399668	0.040618204512080	6.7133423103469
0.99123562921076	0.039668236674137	6.7323788226341
0.99391464442484	0.038493623845744	6.7518218268561
0.99659365963893	0.037329864927039	6.7717359465067
0.99927267485301	0.036411505390362	6.7920502795834
1.0019516900671	0.035899691461565	6.8125794304095
1.0046307052812	0.035831962169896	6.8330801675278
1.0073097204953	0.036109997362531	6.8533263997050
